hour, t(sec), P1 (kW), Q1 (kvar), P2 (kW), Q2 (kvar), P3 (kW), Q3 (kvar)
0, 0.00100, -95.2699, 0.00485976, -96.9143, -0.00395014, -99.9203, 0.000844225
0, 0.00200, -95.2691, 0.000315776, -96.9134, -0.000252745, -99.9214, 6.90889E-005
0, 0.00300, -95.269, 3.04497E-005, -96.9133, -2.91583E-005, -99.9215, 1.05547E-005
0, 0.00400, -95.269, 2.835E-006, -96.9133, -3.0985E-006, -99.9215, 1.47578E-006
0, 0.00500, -95.269, 2.4703E-007, -96.9133, -3.11862E-007, -99.9215, 1.87261E-007
0, 0.00600, -95.269, 1.94755E-008, -96.9133, -2.97333E-008, -99.9215, 2.20966E-008
0, 0.00700, -95.269, 1.27851E-009, -96.9133, -2.64387E-009, -99.9215, 2.46159E-009
0, 0.00800, -95.269, 4.84615E-011, -96.9133, -1.9863E-010, -99.9215, 2.60698E-010
0, 0.00900, -95.269, -4.02724E-012, -96.9133, 4.49472E-012, -99.9215, 2.63026E-011
0, 0.01000, -95.269, -1.31695E-012, -96.9133, 1.92995E-011, -99.9215, 2.53203E-012
0, 0.01100, -95.269, -2.21917E-013, -96.9133, 2.00653E-011, -99.9215, 2.25555E-013
0, 0.01200, -95.269, -3.63798E-015, -96.9133, 2.00325E-011, -99.9215, 2.18279E-014
0, 0.01300, -95.269, 1.09139E-014, -96.9133, 2.0038E-011, -99.9215, 2.18279E-014
0, 0.01400, -95.269, 1.09139E-014, -96.9133, 2.0038E-011, -99.9215, 0
0, 0.01500, -95.269, 1.09139E-014, -96.9133, 2.0038E-011, -99.9215, 0
0, 0.01600, -95.269, 1.09139E-014, -96.9133, 2.0038E-011, -99.9215, 0
0, 0.01700, -95.269, 1.09139E-014, -96.9133, 2.0038E-011, -99.9215, 0
0, 0.01800, -95.269, 1.09139E-014, -96.9133, 2.0038E-011, -99.9215, 0
0, 0.01900, -95.269, 1.09139E-014, -96.9133, 2.0038E-011, -99.9215, 0
0, 0.02000, -95.269, 1.09139E-014, -96.9133, 2.0038E-011, -99.9215, 0
0, 0.02100, -1.0989, -2.03338, -1.09674, -1.9685, -1.04807, -2.0096
0, 0.02200, -1.10183, -2.0757, -1.09331, -2.01008, -1.05711, -2.0477
0, 0.02300, -1.13334, -2.05764, -1.1245, -1.98727, -1.08873, -2.01692
0, 0.02400, -1.10034, -2.0479, -1.0837, -1.97033, -1.05021, -2.00579
0, 0.02500, -1.10913, -2.08787, -1.08604, -2.01133, -1.06733, -2.04193
0, 0.02600, -1.13606, -2.06337, -1.11575, -1.98455, -1.09068, -2.00602
0, 0.02700, -1.10097, -2.05868, -1.074, -1.97201, -1.05057, -2.00436
0, 0.02800, -1.11569, -2.09577, -1.0824, -2.01196, -1.0749, -2.03678
0, 0.02900, -1.13732, -2.06619, -1.10915, -1.98123, -1.08999, -1.99754
0, 0.03000, -1.10129, -2.06735, -1.06652, -1.97401, -1.0505, -2.00464
0, 0.03100, -1.12165, -2.10078, -1.08111, -2.01211, -1.08093, -2.03199
0, 0.03200, -1.13738, -2.06741, -1.10368, -1.97774, -1.08779, -1.991
0, 0.03300, -1.1016, -2.07475, -1.06071, -1.97646, -1.05065, -2.00607
0, 0.03400, -1.12704, -2.10369, -1.08137, -2.01177, -1.08589, -2.02734
0, 0.03500, -1.13645, -2.06783, -1.09876, -1.97432, -1.08466, -1.98608
0, 0.03600, -1.10208, -2.08134, -1.05627, -1.97934, -1.0513, -2.00822
0, 0.03700, -1.13187, -2.10499, -1.08263, -2.01088, -1.08999, -2.02268
0, 0.03800, -1.13471, -2.06791, -1.09406, -1.97116, -1.08098, -1.98257
0, 0.03900, -1.10288, -2.08732, -1.05302, -1.9826, -1.05259, -2.01077
0, 0.04000, -1.1361, -2.10502, -1.0845, -2.00942, -1.0933, -2.01795
0, 0.04100, -1.13234, -2.06798, -1.0894, -1.96839, -1.077, -1.9803
0, 0.04200, -1.10409, -2.09278, -1.05087, -1.98613, -1.05453, -2.01343
0, 0.04300, -1.13973, -2.10403, -1.08665, -2.00739, -1.09582, -2.01314
0, 0.04400, -1.12951, -2.06826, -1.08471, -1.96613, -1.0729, -1.97914
0, 0.04500, -1.10576, -2.09773, -1.04975, -1.98982, -1.0571, -2.01598
0, 0.04600, -1.1427, -2.10222, -1.08884, -2.00481, -1.09756, -2.0083
0, 0.04700, -1.12639, -2.06888, -1.07996, -1.96447, -1.06886, -1.979
0, 0.04800, -1.10791, -2.10215, -1.0496, -1.99352, -1.06022, -2.01825
0, 0.04900, -1.14499, -2.09977, -1.09086, -2.00173, -1.09849, -2.00347
0, 0.05000, -1.12312, -2.06994, -1.0752, -1.96346, -1.06501, -1.97978
0, 0.05100, -1.11053, -2.106, -1.05036, -1.99712, -1.06381, -2.02008
0, 0.05200, -1.14658, -2.09686, -1.09255, -1.99823, -1.09864, -1.99874
0, 0.05300, -1.11767, -2.06745, -1.06862, -1.95975, -1.05965, -1.97792
0, 0.05400, -1.10817, -2.09913, -1.047, -1.9912, -1.06264, -2.01178
0, 0.05500, -1.13969, -2.07936, -1.08653, -1.98107, -1.09047, -1.98034
0, 0.05600, -1.10775, -2.05692, -1.05742, -1.94791, -1.04972, -1.96745
0, 0.05700, -1.10754, -2.09415, -1.0454, -1.98679, -1.06267, -2.00476
0, 0.05800, -1.13784, -2.07229, -1.08519, -1.97334, -1.08703, -1.97229
0, 0.05900, -1.1044, -2.05859, -1.05258, -1.9481, -1.04667, -1.96937
0, 0.06000, -1.11176, -2.09708, -1.04885, -1.99025, -1.06744, -2.00576
0, 0.06100, -1.13862, -2.07133, -1.08644, -1.97144, -1.08627, -1.97078
0, 0.06200, -1.10367, -2.06489, -1.05027, -1.95304, -1.04652, -1.97599
0, 0.06300, -1.11761, -2.102, -1.05422, -1.99579, -1.07366, -2.00884
0, 0.06400, -1.13961, -2.07209, -1.0879, -1.97112, -1.0858, -1.97138
0, 0.06500, -1.1038, -2.07234, -1.04878, -1.95936, -1.04747, -1.98375
0, 0.06600, -1.1236, -2.10631, -1.06006, -2.00083, -1.0798, -2.01141
0, 0.06700, -1.13983, -2.07281, -1.08854, -1.97067, -1.08466, -1.97227
0, 0.06800, -1.10415, -2.07952, -1.04754, -1.9657, -1.04884, -1.99116
0, 0.06900, -1.12911, -2.10912, -1.06574, -2.00442, -1.08523, -2.01257
0, 0.07000, -1.13903, -2.07302, -1.08808, -1.96964, -1.08263, -1.97291
0, 0.07100, -68.0265, 0.689675, -68.3144, 0.670191, -70.0093, 0.0683578
0, 0.07200, -28.3795, -0.0989243, -26.9557, -0.0869058, -26.2271, -0.0898729
0, 0.07300, -7.78346, -0.0197718, -5.79567, -0.0135606, -3.33545, -0.00833229
0, 0.07400, 3.86808, 0.00750963, 6.16238, 0.0111041, 9.66933, 0.0185175
0, 0.07500, 8.84499, 0.012631, 11.2289, 0.0149486, 15.2609, 0.0215703
0, 0.07600, 9.02555, 0.00876515, 11.341, 0.0104174, 15.5066, 0.0150728
0, 0.07700, 5.83874, 0.00428874, 7.97492, 0.00522037, 11.9916, 0.00858317
0, 0.07800, 0.382809, 0.000190218, 2.26642, 0.000956279, 5.93813, 0.00283905
0, 0.07900, -6.50074, -0.00213125, -4.91372, -0.00125042, -1.71541, -0.000524666
0, 0.08000, -14.1763, -0.00252493, -12.9077, -0.00167971, -10.2582, -0.00165146
0, 0.08100, -22.1706, -0.00183456, -21.2253, -0.000881224, -19.1597, -0.00124742
0, 0.08200, -30.1398, -0.000446954, -29.5105, 0.000618602, -28.0333, 8.44035E-005
0, 0.08300, -37.8397, 0.00122101, -37.5106, 0.00236802, -36.6049, 0.00182516
0, 0.08400, -45.1052, 0.00286786, -45.0552, 0.0040552, -44.6896, 0.00360012
0, 0.08500, -51.8337, 0.00330714, -52.0384, 0.00544722, -52.1722, 0.00444818
0, 0.08600, -57.9692, 0.00437983, -58.4026, 0.00658388, -58.9894, 0.00565469
0, 0.08700, -63.4886, 0.0051921, -64.1248, 0.00731502, -65.1171, 0.00653134
0, 0.08800, -68.3967, 0.00571006, -69.2106, 0.00769922, -70.5609, 0.0070669
0, 0.08900, -72.7163, 0.00596072, -73.6842, 0.00778469, -75.3466, 0.00729389
0, 0.09000, -76.4825, 0.00598657, -77.5824, 0.00762807, -79.5135, 0.00726228
0, 0.09100, -79.7376, 0.00583447, -80.9493, 0.0072875, -83.1094, 0.00702754
0, 0.09200, -82.5285, 0.00317709, -83.8342, 0.00552377, -86.1871, 0.00480446
0, 0.09300, -84.9035, 0.00299559, -86.2872, 0.00518909, -88.7997, 0.00450523
0, 0.09400, -86.9076, 0.00284796, -88.3555, 0.00474586, -90.9994, 0.00418064
0, 0.09500, -88.5862, 0.0026609, -90.0862, 0.00427119, -92.8371, 0.0038186
0, 0.09600, -89.9817, 0.00244424, -91.5234, 0.00379443, -94.3602, 0.00343805
0, 0.09700, -91.133, 0.00221226, -92.7079, 0.00333236, -95.6124, 0.00305604
0, 0.09800, -92.0756, 0.00197654, -93.6762, 0.00289607, -96.6333, 0.0026854
0, 0.09900, -92.8408, 0.00174573, -94.4613, 0.00249262, -97.4583, 0.0023351
0, 0.10000, -93.4569, 0.0015259, -95.0921, 0.0021259, -98.1185, 0.00201088
0, 0.10100, -93.9481, 0.00132107, -95.5941, 0.00179743, -98.6415, 0.00171593
0, 0.10200, -94.3357, 0.00113358, -95.9894, 0.00150693, -99.0508, 0.00145155
0, 0.10300, -94.6381, 0.000964537, -96.2968, 0.00125292, -99.367, 0.00121756
0, 0.10400, -94.8708, 0.000814075, -96.5326, 0.00103307, -99.6073, 0.0010128
0, 0.10500, -95.047, 0.000685175, -96.7105, 0.000865075, -99.7807, 0.000989733
0, 0.10600, -95.1738, 0.000687645, -96.8382, 0.000750447, -99.9004, 0.000530654
0, 0.10700, -95.261, 4.05307E-005, -96.9132, -5.51555E-005, -99.9215, 1.91047E-005
0, 0.10800, -95.269, -2.45662E-005, -96.9133, 7.08017E-006, -99.9215, 2.26256E-006
0, 0.10900, -95.269, -2.2085E-006, -96.9133, 1.38239E-006, -99.9215, 2.04004E-007
0, 0.11000, -95.269, -2.3874E-007, -96.9133, 1.7994E-007, -99.9215, -1.00352E-008
0, 0.11100, -95.269, -2.4799E-008, -96.9133, 2.12967E-008, -99.9215, -4.53847E-009
0, 0.11200, -95.269, -2.45474E-009, -96.9133, 2.3887E-009, -99.9215, -8.19528E-010
0, 0.11300, -95.269, -2.30004E-010, -96.9133, 2.70666E-010, -99.9215, -1.17499E-010
0, 0.11400, -95.269, -2.00998E-011, -96.9133, 4.5291E-011, -99.9215, -1.50394E-011
0, 0.11500, -95.269, -1.56433E-012, -96.9133, 2.24318E-011, -99.9215, -1.77533E-012
0, 0.11600, -95.269, -1.23691E-013, -96.9133, 2.0229E-011, -99.9215, -1.96451E-013
0, 0.11700, -95.269, 1.09139E-014, -96.9133, 2.00744E-011, -99.9215, -3.63798E-014
0, 0.11800, -95.269, 1.09139E-014, -96.9133, 2.0038E-011, -99.9215, 0
0, 0.11900, -95.269, 1.09139E-014, -96.9133, 2.0038E-011, -99.9215, 0
0, 0.12000, -95.269, 1.09139E-014, -96.9133, 2.0038E-011, -99.9215, 0
