hour, t(sec), Irradiance,PanelkW,P_TFactor,Efficiency,Vreg,Vavg (DRC),volt-var,volt-watt,DRC,VV_DRC,watt-pf,watt-var,kW_out_desired,Grid voltage,di/dt,it,it History,Rated VDC,Avg duty cycle,Target (Amps),Series L,Max. Amps (phase),
0, 0.00100, 1, 360, 1, 1, 9999, 9999, 9999, 9999, 9999, 9999, 9999, 9999, 360, 230.748, 4441.97, 513.907, 511.686, 700, 0.56495, 433.013, 0.000848826, 433.013
0, 0.00200, 1, 360, 1, 1, 9999, 9999, 9999, 9999, 9999, 9999, 9999, 9999, 360, 230.758, -1004.07, 515.626, 516.128, 700, 0.560089, 433.013, 0.000848826, 433.013
0, 0.00300, 1, 360, 1, 1, 9999, 9999, 9999, 9999, 9999, 9999, 9999, 9999, 360, 230.759, -3403.17, 513.422, 515.124, 700, 0.554659, 433.013, 0.000848826, 433.013
0, 0.00400, 1, 360, 1, 1, 9999, 9999, 9999, 9999, 9999, 9999, 9999, 9999, 360, 230.759, -5008.52, 509.217, 511.721, 700, 0.549393, 433.013, 0.000848826, 433.013
0, 0.00500, 1, 360, 1, 1, 9999, 9999, 9999, 9999, 9999, 9999, 9999, 9999, 360, 230.759, -5978.51, 503.723, 506.712, 700, 0.544434, 433.013, 0.000848826, 433.013
0, 0.00600, 1, 360, 1, 1, 9999, 9999, 9999, 9999, 9999, 9999, 9999, 9999, 360, 230.759, -6469.11, 497.499, 500.734, 700, 0.539858, 433.013, 0.000848826, 433.013
0, 0.00700, 1, 360, 1, 1, 9999, 9999, 9999, 9999, 9999, 9999, 9999, 9999, 360, 230.759, -6603.78, 490.963, 494.265, 700, 0.535706, 433.013, 0.000848826, 433.013
0, 0.00800, 1, 360, 1, 1, 9999, 9999, 9999, 9999, 9999, 9999, 9999, 9999, 360, 230.759, -6481.69, 484.42, 487.661, 700, 0.531989, 433.013, 0.000848826, 433.013
0, 0.00900, 1, 360, 1, 1, 9999, 9999, 9999, 9999, 9999, 9999, 9999, 9999, 360, 230.759, -6181.6, 478.089, 481.179, 700, 0.528704, 433.013, 0.000848826, 433.013
0, 0.01000, 1, 360, 1, 1, 9999, 9999, 9999, 9999, 9999, 9999, 9999, 9999, 360, 230.759, -5765.24, 472.115, 474.998, 700, 0.525834, 433.013, 0.000848826, 433.013
0, 0.01100, 1, 360, 1, 1, 9999, 9999, 9999, 9999, 9999, 9999, 9999, 9999, 360, 230.759, -5280.15, 466.592, 469.232, 700, 0.523352, 433.013, 0.000848826, 433.013
0, 0.01200, 1, 360, 1, 1, 9999, 9999, 9999, 9999, 9999, 9999, 9999, 9999, 360, 230.759, -4762.32, 461.571, 463.952, 700, 0.521227, 433.013, 0.000848826, 433.013
0, 0.01300, 1, 360, 1, 1, 9999, 9999, 9999, 9999, 9999, 9999, 9999, 9999, 360, 230.759, -4238.35, 457.071, 459.19, 700, 0.519425, 433.013, 0.000848826, 433.013
0, 0.01400, 1, 360, 1, 1, 9999, 9999, 9999, 9999, 9999, 9999, 9999, 9999, 360, 230.759, -3727.29, 453.088, 454.952, 700, 0.517911, 433.013, 0.000848826, 433.013
0, 0.01500, 1, 360, 1, 1, 9999, 9999, 9999, 9999, 9999, 9999, 9999, 9999, 360, 230.759, -3242.21, 449.603, 451.224, 700, 0.516652, 433.013, 0.000848826, 433.013
0, 0.01600, 1, 360, 1, 1, 9999, 9999, 9999, 9999, 9999, 9999, 9999, 9999, 360, 230.759, -2791.53, 446.586, 447.982, 700, 0.515614, 433.013, 0.000848826, 433.013
0, 0.01700, 1, 360, 1, 1, 9999, 9999, 9999, 9999, 9999, 9999, 9999, 9999, 360, 230.759, -2380.08, 444.001, 445.191, 700, 0.514768, 433.013, 0.000848826, 433.013
0, 0.01800, 1, 360, 1, 1, 9999, 9999, 9999, 9999, 9999, 9999, 9999, 9999, 360, 230.759, -2010, 441.806, 442.811, 700, 0.514085, 433.013, 0.000848826, 433.013
0, 0.01900, 1, 360, 1, 1, 9999, 9999, 9999, 9999, 9999, 9999, 9999, 9999, 360, 230.759, -1681.43, 439.96, 440.801, 700, 0.513541, 433.013, 0.000848826, 433.013
0, 0.02000, 1, 360, 1, 1, 9999, 9999, 9999, 9999, 9999, 9999, 9999, 9999, 360, 230.759, -1393.12, 438.423, 439.119, 700, 0.513113, 433.013, 0.000848826, 433.013
0, 0.02100, 1, 360, 1, 1, 9999, 9999, 9999, 9999, 9999, 9999, 9999, 9999, 360, 5.25742, 264520, 569.986, 437.726, 700, 0.512781, 433.013, 0.000848826, 433.013
0, 0.02200, 1, 360, 1, 1, 9999, 9999, 9999, 9999, 9999, 9999, 9999, 9999, 360, 5.26851, 123927, 764.209, 702.246, 700, 0.512528, 433.013, 0.000848826, 433.013
0, 0.02300, 1, 360, 1, 1, 9999, 9999, 9999, 9999, 9999, 9999, 9999, 9999, 360, 5.33509, 76224.7, 864.285, 826.173, 700, 0.49545, 433.013, 0.000848826, 433.013
0, 0.02400, 1, 360, 1, 1, 9999, 9999, 9999, 9999, 9999, 9999, 9999, 9999, 360, 5.23931, 38588.9, 921.692, 902.397, 700, 0.473603, 433.013, 0.000848826, 433.013
0, 0.02500, 1, 360, 1, 1, 9999, 9999, 9999, 9999, 9999, 9999, 9999, 9999, 360, 5.27182, 10565.9, 946.269, 940.986, 700, 0.449269, 433.013, 0.000848826, 433.013
0, 0.02600, 1, 360, 1, 1, 9999, 9999, 9999, 9999, 9999, 9999, 9999, 9999, 360, 5.32198, -9630.47, 946.737, 951.552, 700, 0.423989, 433.013, 0.000848826, 433.013
0, 0.02700, 1, 360, 1, 1, 9999, 9999, 9999, 9999, 9999, 9999, 9999, 9999, 360, 5.22467, -23486.6, 930.179, 941.922, 700, 0.398879, 433.013, 0.000848826, 433.013
0, 0.02800, 1, 360, 1, 1, 9999, 9999, 9999, 9999, 9999, 9999, 9999, 9999, 360, 5.27554, -32714.4, 902.078, 918.435, 700, 0.374716, 433.013, 0.000848826, 433.013
0, 0.02900, 1, 360, 1, 1, 9999, 9999, 9999, 9999, 9999, 9999, 9999, 9999, 360, 5.30832, -38121.6, 866.66, 885.721, 700, 0.352017, 433.013, 0.000848826, 433.013
0, 0.03000, 1, 360, 1, 1, 9999, 9999, 9999, 9999, 9999, 9999, 9999, 9999, 360, 5.21376, -40583.6, 827.307, 847.599, 700, 0.331108, 433.013, 0.000848826, 433.013
0, 0.03100, 1, 360, 1, 1, 9999, 9999, 9999, 9999, 9999, 9999, 9999, 9999, 360, 5.27987, -41177.6, 786.427, 807.016, 700, 0.312157, 433.013, 0.000848826, 433.013
0, 0.03200, 1, 360, 1, 1, 9999, 9999, 9999, 9999, 9999, 9999, 9999, 9999, 360, 5.29472, -40150.9, 745.763, 765.838, 700, 0.295213, 433.013, 0.000848826, 433.013
0, 0.03300, 1, 360, 1, 1, 9999, 9999, 9999, 9999, 9999, 9999, 9999, 9999, 360, 5.2064, -38016.6, 706.679, 725.687, 700, 0.280257, 433.013, 0.000848826, 433.013
0, 0.03400, 1, 360, 1, 1, 9999, 9999, 9999, 9999, 9999, 9999, 9999, 9999, 360, 5.28451, -35436, 669.953, 687.671, 700, 0.2672, 433.013, 0.000848826, 433.013
0, 0.03500, 1, 360, 1, 1, 9999, 9999, 9999, 9999, 9999, 9999, 9999, 9999, 360, 5.28138, -32318.2, 636.075, 652.234, 700, 0.255917, 433.013, 0.000848826, 433.013
0, 0.03600, 1, 360, 1, 1, 9999, 9999, 9999, 9999, 9999, 9999, 9999, 9999, 360, 5.20226, -28993.1, 605.42, 619.916, 700, 0.246269, 433.013, 0.000848826, 433.013
0, 0.03700, 1, 360, 1, 1, 9999, 9999, 9999, 9999, 9999, 9999, 9999, 9999, 360, 5.28905, -25857.9, 577.994, 590.923, 700, 0.238095, 433.013, 0.000848826, 433.013
0, 0.03800, 1, 360, 1, 1, 9999, 9999, 9999, 9999, 9999, 9999, 9999, 9999, 360, 5.26839, -22638, 553.746, 565.065, 700, 0.231232, 433.013, 0.000848826, 433.013
0, 0.03900, 1, 360, 1, 1, 9999, 9999, 9999, 9999, 9999, 9999, 9999, 9999, 360, 5.20096, -19593.8, 532.63, 542.427, 700, 0.225531, 433.013, 0.000848826, 433.013
0, 0.04000, 1, 360, 1, 1, 9999, 9999, 9999, 9999, 9999, 9999, 9999, 9999, 360, 5.29305, -16953.7, 514.357, 522.833, 700, 0.220838, 433.013, 0.000848826, 433.013
0, 0.04100, 1, 360, 1, 1, 9999, 9999, 9999, 9999, 9999, 9999, 9999, 9999, 360, 5.25583, -14359.1, 498.7, 505.88, 700, 0.217013, 433.013, 0.000848826, 433.013
0, 0.04200, 1, 360, 1, 1, 9999, 9999, 9999, 9999, 9999, 9999, 9999, 9999, 360, 5.20217, -12065.3, 485.488, 491.521, 700, 0.213934, 433.013, 0.000848826, 433.013
0, 0.04300, 1, 360, 1, 1, 9999, 9999, 9999, 9999, 9999, 9999, 9999, 9999, 360, 5.29618, -10186, 474.362, 479.455, 700, 0.211481, 433.013, 0.000848826, 433.013
0, 0.04400, 1, 360, 1, 1, 9999, 9999, 9999, 9999, 9999, 9999, 9999, 9999, 360, 5.24383, -8340.78, 465.099, 469.269, 700, 0.209552, 433.013, 0.000848826, 433.013
0, 0.04500, 1, 360, 1, 1, 9999, 9999, 9999, 9999, 9999, 9999, 9999, 9999, 360, 5.20554, -6809.67, 457.524, 460.929, 700, 0.208064, 433.013, 0.000848826, 433.013
0, 0.04600, 1, 360, 1, 1, 9999, 9999, 9999, 9999, 9999, 9999, 9999, 9999, 360, 5.29815, -5620.21, 451.309, 454.119, 700, 0.206932, 433.013, 0.000848826, 433.013
0, 0.04700, 1, 360, 1, 1, 9999, 9999, 9999, 9999, 9999, 9999, 9999, 9999, 360, 5.23254, -4407.81, 446.295, 448.499, 700, 0.20609, 433.013, 0.000848826, 433.013
0, 0.04800, 1, 360, 1, 1, 9999, 9999, 9999, 9999, 9999, 9999, 9999, 9999, 360, 5.21074, -3486.06, 442.348, 444.091, 700, 0.205486, 433.013, 0.000848826, 433.013
0, 0.04900, 1, 360, 1, 1, 9999, 9999, 9999, 9999, 9999, 9999, 9999, 9999, 360, 5.29879, -2810.23, 439.2, 440.605, 700, 0.205066, 433.013, 0.000848826, 433.013
0, 0.05000, 1, 360, 1, 1, 9999, 9999, 9999, 9999, 9999, 9999, 9999, 9999, 360, 5.22215, -2054.03, 436.768, 437.795, 700, 0.20479, 433.013, 0.000848826, 433.013
0, 0.05100, 1, 360, 1, 1, 9999, 9999, 9999, 9999, 9999, 9999, 9999, 9999, 360, 5.21742, -1561.52, 434.96, 435.741, 700, 0.204631, 433.013, 0.000848826, 433.013
0, 0.05200, 1, 360, 1, 1, 9999, 9999, 9999, 9999, 9999, 9999, 9999, 9999, 360, 5.29797, -1151.59, 433.603, 434.179, 700, 0.204631, 433.013, 0.000848826, 433.013
0, 0.05300, 1, 360, 1, 1, 9999, 9999, 9999, 9999, 9999, 9999, 9999, 9999, 360, 5.20557, -777.19, 432.639, 433.027, 700, 0.204554, 433.013, 0.000848826, 433.013
0, 0.05400, 1, 360, 1, 1, 9999, 9999, 9999, 9999, 9999, 9999, 9999, 9999, 360, 5.21093, -543.656, 431.978, 432.25, 700, 0.20458, 433.013, 0.000848826, 433.013
0, 0.05500, 1, 360, 1, 1, 9999, 9999, 9999, 9999, 9999, 9999, 9999, 9999, 360, 5.27581, -400.674, 431.506, 431.707, 700, 0.204638, 433.013, 0.000848826, 433.013
0, 0.05600, 1, 360, 1, 1, 9999, 9999, 9999, 9999, 9999, 9999, 9999, 9999, 360, 5.18166, -120.776, 431.246, 431.306, 700, 0.204717, 433.013, 0.000848826, 433.013
0, 0.05700, 1, 360, 1, 1, 9999, 9999, 9999, 9999, 9999, 9999, 9999, 9999, 360, 5.21076, -77.568, 431.146, 431.185, 700, 0.20481, 433.013, 0.000848826, 433.013
0, 0.05800, 1, 360, 1, 1, 9999, 9999, 9999, 9999, 9999, 9999, 9999, 9999, 360, 5.26785, -38.3253, 431.088, 431.108, 700, 0.204903, 433.013, 0.000848826, 433.013
0, 0.05900, 1, 360, 1, 1, 9999, 9999, 9999, 9999, 9999, 9999, 9999, 9999, 360, 5.17459, 140.044, 431.139, 431.069, 700, 0.204998, 433.013, 0.000848826, 433.013
0, 0.06000, 1, 360, 1, 1, 9999, 9999, 9999, 9999, 9999, 9999, 9999, 9999, 360, 5.22178, 88.9037, 431.254, 431.209, 700, 0.205093, 433.013, 0.000848826, 433.013
0, 0.06100, 1, 360, 1, 1, 9999, 9999, 9999, 9999, 9999, 9999, 9999, 9999, 360, 5.2661, 89.8384, 431.343, 431.298, 700, 0.205178, 433.013, 0.000848826, 433.013
0, 0.06200, 1, 360, 1, 1, 9999, 9999, 9999, 9999, 9999, 9999, 9999, 9999, 360, 5.17427, 215.427, 431.496, 431.388, 700, 0.20526, 433.013, 0.000848826, 433.013
0, 0.06300, 1, 360, 1, 1, 9999, 9999, 9999, 9999, 9999, 9999, 9999, 9999, 360, 5.23616, 115.604, 431.661, 431.604, 700, 0.205336, 433.013, 0.000848826, 433.013
0, 0.06400, 1, 360, 1, 1, 9999, 9999, 9999, 9999, 9999, 9999, 9999, 9999, 360, 5.26496, 113.404, 431.776, 431.719, 700, 0.2054, 433.013, 0.000848826, 433.013
0, 0.06500, 1, 360, 1, 1, 9999, 9999, 9999, 9999, 9999, 9999, 9999, 9999, 360, 5.17645, 210.284, 431.938, 431.833, 700, 0.205461, 433.013, 0.000848826, 433.013
0, 0.06600, 1, 360, 1, 1, 9999, 9999, 9999, 9999, 9999, 9999, 9999, 9999, 360, 5.25031, 87.0461, 432.086, 432.043, 700, 0.205515, 433.013, 0.000848826, 433.013
0, 0.06700, 1, 360, 1, 1, 9999, 9999, 9999, 9999, 9999, 9999, 9999, 9999, 360, 5.26224, 98.8156, 432.179, 432.13, 700, 0.205558, 433.013, 0.000848826, 433.013
0, 0.06800, 1, 360, 1, 1, 9999, 9999, 9999, 9999, 9999, 9999, 9999, 9999, 360, 5.17954, 177.075, 432.317, 432.229, 700, 0.205599, 433.013, 0.000848826, 433.013
0, 0.06900, 1, 360, 1, 1, 9999, 9999, 9999, 9999, 9999, 9999, 9999, 9999, 360, 5.26279, 44.2824, 432.428, 432.406, 700, 0.205634, 433.013, 0.000848826, 433.013
0, 0.07000, 1, 360, 1, 1, 9999, 9999, 9999, 9999, 9999, 9999, 9999, 9999, 360, 5.25744, 76.8596, 432.488, 432.45, 700, 0.205661, 433.013, 0.000848826, 433.013
0, 0.07100, 1, 360, 1, 1, 9999, 9999, 9999, 9999, 9999, 9999, 9999, 9999, 360, 221.802, -255081, 304.986, 432.527, 700, 0.205661, 433.013, 0.000848826, 433.013
0, 0.07200, 1, 360, 1, 1, 9999, 9999, 9999, 9999, 9999, 9999, 9999, 9999, 360, 227.281, -124591, 115.15, 177.446, 700, 0.205687, 433.013, 0.000848826, 433.013
0, 0.07300, 1, 360, 1, 1, 9999, 9999, 9999, 9999, 9999, 9999, 9999, 9999, 360, 226.457, -76293.6, 14.7078, 52.8547, 700, 0.222112, 433.013, 0.000848826, 433.013
0, 0.07400, 1, 360, 1, 1, 9999, 9999, 9999, 9999, 9999, 9999, 9999, 9999, 360, 225.974, -38610, -42.7439, -23.439, 700, 0.243281, 433.013, 0.000848826, 433.013
0, 0.07500, 1, 360, 1, 1, 9999, 9999, 9999, 9999, 9999, 9999, 9999, 9999, 360, 225.794, -10971.7, -67.5348, -62.0489, 700, 0.266902, 433.013, 0.000848826, 433.013
0, 0.07600, 1, 360, 1, 1, 9999, 9999, 9999, 9999, 9999, 9999, 9999, 9999, 360, 225.839, 8790.28, -68.6255, -73.0206, 700, 0.291452, 433.013, 0.000848826, 433.013
0, 0.07700, 1, 360, 1, 1, 9999, 9999, 9999, 9999, 9999, 9999, 9999, 9999, 360, 226.026, 22396, -53.0323, -64.2303, 700, 0.315853, 433.013, 0.000848826, 433.013
0, 0.07800, 1, 360, 1, 1, 9999, 9999, 9999, 9999, 9999, 9999, 9999, 9999, 360, 226.326, 31208.7, -26.23, -41.8343, 700, 0.339355, 433.013, 0.000848826, 433.013
0, 0.07900, 1, 360, 1, 1, 9999, 9999, 9999, 9999, 9999, 9999, 9999, 9999, 360, 226.684, 36383.5, 7.56611, -10.6256, 700, 0.361461, 433.013, 0.000848826, 433.013
0, 0.08000, 1, 360, 1, 1, 9999, 9999, 9999, 9999, 9999, 9999, 9999, 9999, 360, 227.076, 38828.3, 45.172, 25.7578, 700, 0.381869, 433.013, 0.000848826, 433.013
0, 0.08100, 1, 360, 1, 1, 9999, 9999, 9999, 9999, 9999, 9999, 9999, 9999, 360, 227.472, 39285, 84.2287, 64.5862, 700, 0.400424, 433.013, 0.000848826, 433.013
0, 0.08200, 1, 360, 1, 1, 9999, 9999, 9999, 9999, 9999, 9999, 9999, 9999, 360, 227.859, 38326.9, 123.035, 103.871, 700, 0.417075, 433.013, 0.000848826, 433.013
0, 0.08300, 1, 360, 1, 1, 9999, 9999, 9999, 9999, 9999, 9999, 9999, 9999, 360, 228.226, 36406.5, 160.401, 142.198, 700, 0.431851, 433.013, 0.000848826, 433.013
0, 0.08400, 1, 360, 1, 1, 9999, 9999, 9999, 9999, 9999, 9999, 9999, 9999, 360, 228.567, 33872.5, 195.541, 178.605, 700, 0.444831, 433.013, 0.000848826, 433.013
0, 0.08500, 1, 360, 1, 1, 9999, 9999, 9999, 9999, 9999, 9999, 9999, 9999, 360, 228.876, 30993.4, 227.974, 212.477, 700, 0.45613, 433.013, 0.000848826, 433.013
0, 0.08600, 1, 360, 1, 1, 9999, 9999, 9999, 9999, 9999, 9999, 9999, 9999, 360, 229.156, 27957.2, 257.449, 243.47, 700, 0.465881, 433.013, 0.000848826, 433.013
0, 0.08700, 1, 360, 1, 1, 9999, 9999, 9999, 9999, 9999, 9999, 9999, 9999, 360, 229.405, 24913.9, 283.885, 271.428, 700, 0.474231, 433.013, 0.000848826, 433.013
0, 0.08800, 1, 360, 1, 1, 9999, 9999, 9999, 9999, 9999, 9999, 9999, 9999, 360, 229.624, 21964.1, 307.324, 296.342, 700, 0.481325, 433.013, 0.000848826, 433.013
0, 0.08900, 1, 360, 1, 1, 9999, 9999, 9999, 9999, 9999, 9999, 9999, 9999, 360, 229.814, 19175.8, 327.893, 318.306, 700, 0.487308, 433.013, 0.000848826, 433.013
0, 0.09000, 1, 360, 1, 1, 9999, 9999, 9999, 9999, 9999, 9999, 9999, 9999, 360, 229.978, 16591.6, 345.777, 337.481, 700, 0.492317, 433.013, 0.000848826, 433.013
0, 0.09100, 1, 360, 1, 1, 9999, 9999, 9999, 9999, 9999, 9999, 9999, 9999, 360, 230.119, 14234.9, 361.19, 354.073, 700, 0.49648, 433.013, 0.000848826, 433.013
0, 0.09200, 1, 360, 1, 1, 9999, 9999, 9999, 9999, 9999, 9999, 9999, 9999, 360, 230.235, 12119.6, 374.368, 368.308, 700, 0.499914, 433.013, 0.000848826, 433.013
0, 0.09300, 1, 360, 1, 1, 9999, 9999, 9999, 9999, 9999, 9999, 9999, 9999, 360, 230.337, 10232.1, 385.544, 380.427, 700, 0.502725, 433.013, 0.000848826, 433.013
0, 0.09400, 1, 360, 1, 1, 9999, 9999, 9999, 9999, 9999, 9999, 9999, 9999, 360, 230.422, 8572.49, 394.946, 390.66, 700, 0.505007, 433.013, 0.000848826, 433.013
0, 0.09500, 1, 360, 1, 1, 9999, 9999, 9999, 9999, 9999, 9999, 9999, 9999, 360, 230.492, 7126.65, 402.795, 399.232, 700, 0.506843, 433.013, 0.000848826, 433.013
0, 0.09600, 1, 360, 1, 1, 9999, 9999, 9999, 9999, 9999, 9999, 9999, 9999, 360, 230.551, 5878.14, 409.298, 406.359, 700, 0.508308, 433.013, 0.000848826, 433.013
0, 0.09700, 1, 360, 1, 1, 9999, 9999, 9999, 9999, 9999, 9999, 9999, 9999, 360, 230.598, 4808.99, 414.641, 412.237, 700, 0.509464, 433.013, 0.000848826, 433.013
0, 0.09800, 1, 360, 1, 1, 9999, 9999, 9999, 9999, 9999, 9999, 9999, 9999, 360, 230.637, 3900.74, 418.996, 417.046, 700, 0.510365, 433.013, 0.000848826, 433.013
0, 0.09900, 1, 360, 1, 1, 9999, 9999, 9999, 9999, 9999, 9999, 9999, 9999, 360, 230.668, 3135.18, 422.514, 420.947, 700, 0.51106, 433.013, 0.000848826, 433.013
0, 0.10000, 1, 360, 1, 1, 9999, 9999, 9999, 9999, 9999, 9999, 9999, 9999, 360, 230.693, 2494.86, 425.329, 424.082, 700, 0.511586, 433.013, 0.000848826, 433.013
0, 0.10100, 1, 360, 1, 1, 9999, 9999, 9999, 9999, 9999, 9999, 9999, 9999, 360, 230.713, 1963.45, 427.558, 426.577, 700, 0.511976, 433.013, 0.000848826, 433.013
0, 0.10200, 1, 360, 1, 1, 9999, 9999, 9999, 9999, 9999, 9999, 9999, 9999, 360, 230.728, 1525.9, 429.303, 428.54, 700, 0.51226, 433.013, 0.000848826, 433.013
0, 0.10300, 1, 360, 1, 1, 9999, 9999, 9999, 9999, 9999, 9999, 9999, 9999, 360, 230.74, 1168.61, 430.65, 430.066, 700, 0.512458, 433.013, 0.000848826, 433.013
0, 0.10400, 1, 360, 1, 1, 9999, 9999, 9999, 9999, 9999, 9999, 9999, 9999, 360, 230.749, 879.359, 431.674, 431.235, 700, 0.512591, 433.013, 0.000848826, 433.013
0, 0.10500, 1, 360, 1, 1, 9999, 9999, 9999, 9999, 9999, 9999, 9999, 9999, 360, 230.755, 597.884, 432.413, 432.114, 700, 0.512673, 433.013, 0.000848826, 433.013
0, 0.10600, 1, 360, 1, 1, 9999, 9999, 9999, 9999, 9999, 9999, 9999, 9999, 360, 230.759, 421.852, 432.923, 432.712, 700, 0.512673, 433.013, 0.000848826, 433.013
0, 0.10700, 1, 360, 1, 1, 9999, 9999, 9999, 9999, 9999, 9999, 9999, 9999, 360, 230.759, 300.126, 433.284, 433.134, 700, 0.512673, 433.013, 0.000848826, 433.013
0, 0.10800, 1, 360, 1, 1, 9999, 9999, 9999, 9999, 9999, 9999, 9999, 9999, 360, 230.759, 262.505, 433.565, 433.434, 700, 0.512673, 433.013, 0.000848826, 433.013
0, 0.10900, 1, 360, 1, 1, 9999, 9999, 9999, 9999, 9999, 9999, 9999, 9999, 360, 230.759, 153.69, 433.773, 433.696, 700, 0.512718, 433.013, 0.000848826, 433.013
0, 0.11000, 1, 360, 1, 1, 9999, 9999, 9999, 9999, 9999, 9999, 9999, 9999, 360, 230.759, 81.206, 433.891, 433.85, 700, 0.512697, 433.013, 0.000848826, 433.013
0, 0.11100, 1, 360, 1, 1, 9999, 9999, 9999, 9999, 9999, 9999, 9999, 9999, 360, 230.759, 27.2778, 433.945, 433.931, 700, 0.512664, 433.013, 0.000848826, 433.013
0, 0.11200, 1, 360, 1, 1, 9999, 9999, 9999, 9999, 9999, 9999, 9999, 9999, 360, 230.759, -11.8218, 433.953, 433.958, 700, 0.512628, 433.013, 0.000848826, 433.013
0, 0.11300, 1, 360, 1, 1, 9999, 9999, 9999, 9999, 9999, 9999, 9999, 9999, 360, 230.759, -39.1485, 433.927, 433.947, 700, 0.51259, 433.013, 0.000848826, 433.013
0, 0.11400, 1, 360, 1, 1, 9999, 9999, 9999, 9999, 9999, 9999, 9999, 9999, 360, 230.759, -57.2304, 433.879, 433.908, 700, 0.512551, 433.013, 0.000848826, 433.013
0, 0.11500, 1, 360, 1, 1, 9999, 9999, 9999, 9999, 9999, 9999, 9999, 9999, 360, 230.759, -68.1631, 433.816, 433.85, 700, 0.512514, 433.013, 0.000848826, 433.013
0, 0.11600, 1, 360, 1, 1, 9999, 9999, 9999, 9999, 9999, 9999, 9999, 9999, 360, 230.759, -73.6677, 433.745, 433.782, 700, 0.51248, 433.013, 0.000848826, 433.013
0, 0.11700, 1, 360, 1, 1, 9999, 9999, 9999, 9999, 9999, 9999, 9999, 9999, 360, 230.759, -75.143, 433.671, 433.708, 700, 0.512448, 433.013, 0.000848826, 433.013
0, 0.11800, 1, 360, 1, 1, 9999, 9999, 9999, 9999, 9999, 9999, 9999, 9999, 360, 230.759, -73.7134, 433.596, 433.633, 700, 0.512419, 433.013, 0.000848826, 433.013
0, 0.11900, 1, 360, 1, 1, 9999, 9999, 9999, 9999, 9999, 9999, 9999, 9999, 360, 230.759, -70.2715, 433.524, 433.56, 700, 0.512393, 433.013, 0.000848826, 433.013
0, 0.12000, 1, 360, 1, 1, 9999, 9999, 9999, 9999, 9999, 9999, 9999, 9999, 360, 230.759, -65.5166, 433.457, 433.489, 700, 0.512393, 433.013, 0.000848826, 433.013
