hour, t(sec), Frequency,Theta (deg),E1,Pshaft,dSpeed (deg/sec),dTheta (deg),Slip,puRs,puXs,puRr,puXr,puXm,Maxslip,Is1,Is2,Ir1,Ir2,Stator Losses,Rotor Losses,Shaft Power (hp),Power Factor,Efficiency (%),
0, 0.00100, 59.7024, 54.3545, 0.976356, 372163, -67.6183, -1.86921, 0.00495981, 0.007, 0.0409, 0.0062, 0.0267, 3.62, 0.1, 468.722, 31.7972, 446.48, 31.7939, 2234.08, 1796.25, 480.621, 0.935448, 98.8944
0, 0.00200, 59.7021, 54.2474, 0.976298, 372163, -187.017, -1.87084, 0.0049657, 0.007, 0.0409, 0.0062, 0.0267, 3.62, 0.1, 449.318, 34.3242, 426.974, 34.3195, 2055.46, 1645.01, 439.019, 0.933382, 98.938
0, 0.00300, 59.7015, 54.1401, 0.976231, 372163, -249.168, -1.87506, 0.0049758, 0.007, 0.0409, 0.0062, 0.0267, 3.62, 0.1, 436.238, 36.1516, 414.08, 36.1474, 1939.51, 1548.93, 412.059, 0.932399, 98.9672
0, 0.00400, 59.7007, 54.0325, 0.976156, 372163, -290.783, -1.88004, 0.0049883, 0.007, 0.0409, 0.0062, 0.0267, 3.62, 0.1, 427.806, 37.4595, 405.825, 37.4577, 1866.75, 1489.12, 394.796, 0.931836, 98.9858
0, 0.00500, 59.6999, 53.9246, 0.976076, 372163, -316.922, -1.88552, 0.00500237, 0.007, 0.0409, 0.0062, 0.0267, 3.62, 0.1, 422.388, 38.4615, 400.595, 38.4632, 1820.88, 1451.99, 383.597, 0.931616, 98.9976
0, 0.00600, 59.699, 53.8164, 0.975992, 372163, -332.237, -1.89131, 0.00501739, 0.007, 0.0409, 0.0062, 0.0267, 3.62, 0.1, 419.099, 39.1927, 397.483, 39.1969, 1793.45, 1430.23, 376.523, 0.931614, 99.0047
0, 0.00700, 59.698, 53.7079, 0.975904, 372163, -339.962, -1.89726, 0.00503295, 0.007, 0.0409, 0.0062, 0.0267, 3.62, 0.1, 417.314, 39.6472, 395.855, 39.6507, 1778.69, 1418.98, 372.285, 0.931749, 99.0085
0, 0.00800, 59.6971, 53.599, 0.975814, 372163, -340.635, -1.90328, 0.00504871, 0.007, 0.0409, 0.0062, 0.0267, 3.62, 0.1, 416.588, 39.8462, 395.266, 39.8459, 1772.73, 1414.94, 370.014, 0.931971, 99.0099
0, 0.00900, 59.6961, 53.4898, 0.975724, 372163, -339.789, -1.90925, 0.00506446, 0.007, 0.0409, 0.0062, 0.0267, 3.62, 0.1, 416.592, 39.8909, 395.394, 39.8859, 1772.8, 1415.88, 369.097, 0.932254, 99.0098
0, 0.01000, 59.6952, 53.3802, 0.975631, 372163, -336.208, -1.91518, 0.00508011, 0.007, 0.0409, 0.0062, 0.0267, 3.62, 0.1, 417.119, 39.9287, 396.032, 39.9214, 1777.28, 1420.43, 369.142, 0.932572, 99.0085
0, 0.01100, 59.6943, 53.2703, 0.975539, 372163, -330.72, -1.92102, 0.00509554, 0.007, 0.0409, 0.0062, 0.0267, 3.62, 0.1, 418.013, 40.0923, 397.025, 40.0876, 1784.96, 1427.61, 369.866, 0.932912, 99.0063
0, 0.01200, 59.6934, 53.1601, 0.975445, 372163, -323.91, -1.92675, 0.0051107, 0.007, 0.0409, 0.0062, 0.0267, 3.62, 0.1, 419.162, 40.405, 398.266, 40.4072, 1794.96, 1436.68, 371.072, 0.933262, 99.0034
0, 0.01300, 59.6925, 53.0495, 0.975352, 372163, -316.196, -1.93234, 0.00512551, 0.007, 0.0409, 0.0062, 0.0267, 3.62, 0.1, 420.488, 40.7493, 399.677, 40.7583, 1806.51, 1447.03, 372.62, 0.933614, 99.0001
0, 0.01400, 59.6916, 52.9387, 0.975258, 372163, -307.878, -1.93779, 0.00513996, 0.007, 0.0409, 0.0062, 0.0267, 3.62, 0.1, 421.935, 40.9341, 401.202, 40.9447, 1819, 1458.12, 374.409, 0.933965, 98.9967
0, 0.01500, 59.6908, 52.8275, 0.975164, 372163, -299.167, -1.94309, 0.00515401, 0.007, 0.0409, 0.0062, 0.0267, 3.62, 0.1, 423.461, 40.8275, 402.802, 40.832, 1831.97, 1469.57, 376.365, 0.934311, 98.9931
0, 0.01600, 59.6899, 52.716, 0.97507, 372163, -290.206, -1.94824, 0.00516766, 0.007, 0.0409, 0.0062, 0.0267, 3.62, 0.1, 425.037, 40.473, 404.447, 40.4664, 1845.21, 1481.21, 378.439, 0.934653, 98.9896
0, 0.01700, 59.6891, 52.6042, 0.974977, 372163, -281.09, -1.95323, 0.00518088, 0.007, 0.0409, 0.0062, 0.0267, 3.62, 0.1, 426.642, 40.1077, 406.119, 40.0922, 1858.76, 1493.09, 380.597, 0.934992, 98.986
0, 0.01800, 59.6884, 52.4922, 0.974884, 372163, -271.881, -1.95805, 0.00519368, 0.007, 0.0409, 0.0062, 0.0267, 3.62, 0.1, 428.266, 40.0387, 407.809, 40.0242, 1872.75, 1505.37, 382.819, 0.935326, 98.9823
0, 0.01900, 59.6876, 52.3799, 0.97479, 372163, -262.626, -1.96272, 0.00520605, 0.007, 0.0409, 0.0062, 0.0267, 3.62, 0.1, 429.901, 40.4169, 409.508, 40.4149, 1887.27, 1518.1, 385.093, 0.935654, 98.9783
0, 0.02000, 59.6869, 52.2673, 0.974698, 372163, -253.37, -1.96722, 0.005218, 0.007, 0.0409, 0.0062, 0.0267, 3.62, 0.1, 431.543, 41.075, 411.21, 41.0902, 1902.12, 1531.12, 387.408, 0.935971, 98.9741
0, 0.02100, 59.6816, 52.1544, 0.968712, 372163, -3551.48, -1.97156, 0.00530607, 0.007, 0.0409, 0.0062, 0.0267, 3.62, 0.1, 2789.73, 10.1909, 2942.86, 10.1785, 78777.6, 77645, 19511.3, 0.0967361, 208.955
0, 0.02200, 59.672, 52.0389, 0.957042, 372163, -3361.71, -2.06178, 0.0054661, 0.007, 0.0409, 0.0062, 0.0267, 3.62, 0.1, 2721.04, 8.2067, 2872.43, 8.14941, 74945.8, 73972.2, 18041.3, 0.0867938, 219.187
0, 0.02300, 59.6629, 51.9191, 0.945711, 372163, -3241.49, -2.11935, 0.00561895, 0.007, 0.0409, 0.0062, 0.0267, 3.62, 0.1, 2654.4, 7.41059, 2804.08, 7.35332, 71319.6, 70493.8, 16722.7, 0.0767335, 232.318
0, 0.02400, 59.654, 51.7961, 0.934644, 372163, -3125.89, -2.17488, 0.00576635, 0.007, 0.0409, 0.0062, 0.0267, 3.62, 0.1, 2589.5, 9.15644, 2737.51, 9.17124, 67875, 67186.6, 15528.4, 0.0664624, 249.933
0, 0.02500, 59.6455, 51.67, 0.923834, 372163, -3014.78, -2.22843, 0.00590849, 0.007, 0.0409, 0.0062, 0.0267, 3.62, 0.1, 2526.3, 11.7873, 2672.67, 11.8642, 64602.9, 64042.3, 14443.4, 0.0559943, 274.658
0, 0.02600, 59.6373, 51.5408, 0.913275, 372163, -2908, -2.28008, 0.00604559, 0.007, 0.0409, 0.0062, 0.0267, 3.62, 0.1, 2464.78, 13.4321, 2609.55, 13.5337, 61495.5, 61053.6, 13455.1, 0.0453203, 311.78
0, 0.02700, 59.6293, 51.4087, 0.90296, 372163, -2805.34, -2.3299, 0.00617784, 0.007, 0.0409, 0.0062, 0.0267, 3.62, 0.1, 2404.87, 13.1717, 2548.07, 13.2584, 58542.4, 58210.6, 12552.3, 0.0344323, 373.552
0, 0.02800, 59.6217, 51.2739, 0.892884, 372163, -2706.57, -2.37796, 0.00630544, 0.007, 0.0409, 0.0062, 0.0267, 3.62, 0.1, 2346.55, 10.6585, 2488.2, 10.6902, 55736.8, 55507, 11725.7, 0.0233273, 496.237
0, 0.02900, 59.6143, 51.1363, 0.883041, 372163, -2611.59, -2.42434, 0.00642854, 0.007, 0.0409, 0.0062, 0.0267, 3.62, 0.1, 2289.76, 6.29971, 2429.9, 6.23128, 53070.8, 52935.5, 10967.1, 0.0120057, 855.487
0, 0.03000, 59.6072, 50.9961, 0.873425, 372163, -2520.29, -2.46909, 0.00654733, 0.007, 0.0409, 0.0062, 0.0267, 3.62, 0.1, 2234.45, 3.43634, 2373.11, 3.3171, 50538, 50489.9, 10269.5, 0.000471706, 18968.2
0, 0.03100, 59.6003, 50.8534, 0.864031, 372163, -2432.68, -2.51228, 0.00666199, 0.007, 0.0409, 0.0062, 0.0267, 3.62, 0.1, 2180.62, 8.2551, 2317.82, 8.34395, 48132.8, 48165, 9626.77, -0.011256, -675.898
0, 0.03200, 59.5936, 50.7083, 0.854854, 372163, -2348.78, -2.55398, 0.00677267, 0.007, 0.0409, 0.0062, 0.0267, 3.62, 0.1, 2128.23, 13.7579, 2263.99, 13.9399, 45849.1, 45955.2, 9033.74, -0.0231636, -269.976
0, 0.03300, 59.5872, 50.5608, 0.845889, 372163, -2268.43, -2.59424, 0.00687955, 0.007, 0.0409, 0.0062, 0.0267, 3.62, 0.1, 2077.28, 17.3503, 2211.62, 17.5736, 43681, 43854.8, 8485.8, -0.0352585, -138.513
0, 0.03400, 59.581, 50.411, 0.83713, 372163, -2191.36, -2.63313, 0.00698278, 0.007, 0.0409, 0.0062, 0.0267, 3.62, 0.1, 2027.74, 17.9269, 2160.69, 18.1463, 41622.8, 41858.5, 7978.89, -0.0475516, -73.5431
0, 0.03500, 59.5751, 50.2591, 0.828573, 372163, -2117.33, -2.6707, 0.00708252, 0.007, 0.0409, 0.0062, 0.0267, 3.62, 0.1, 1979.56, 15.0334, 2111.15, 15.2128, 39667.6, 39960.1, 7509.14, -0.0600595, -34.8287
0, 0.03600, 59.5693, 50.105, 0.820213, 372163, -2046.11, -2.70701, 0.0071789, 0.007, 0.0409, 0.0062, 0.0267, 3.62, 0.1, 1932.69, 9.07175, 2062.92, 9.21789, 37810.1, 38154.3, 7073.08, -0.0727982, -9.15114
0, 0.03700, 59.5637, 49.9489, 0.812045, 372163, -1977.63, -2.7421, 0.00727204, 0.007, 0.0409, 0.0062, 0.0267, 3.62, 0.1, 1887.08, 4.22393, 2015.98, 4.56726, 36045.9, 36437, 6667.69, -0.0857509, 9.0714
0, 0.03800, 59.5583, 49.7908, 0.804064, 372163, -1912.08, -2.77602, 0.00736208, 0.007, 0.0409, 0.0062, 0.0267, 3.62, 0.1, 1842.68, 11.56, 1970.27, 11.9199, 34371, 34804.4, 6290.28, -0.0988773, 22.6156
0, 0.03900, 59.5531, 49.6308, 0.796268, 372163, -1849.62, -2.80882, 0.00744916, 0.007, 0.0409, 0.0062, 0.0267, 3.62, 0.1, 1799.5, 20.4174, 1925.79, 20.8462, 32781.8, 33253.3, 5938.69, -0.112146, 33.0409
0, 0.04000, 59.548, 49.469, 0.788651, 372163, -1790.21, -2.84055, 0.00753341, 0.007, 0.0409, 0.0062, 0.0267, 3.62, 0.1, 1757.55, 26.9328, 1882.56, 27.4213, 31274.7, 31780.1, 5611.1, -0.125542, 41.2937
0, 0.04100, 59.5431, 49.3054, 0.781209, 372163, -1733.6, -2.87128, 0.00761498, 0.007, 0.0409, 0.0062, 0.0267, 3.62, 0.1, 1716.85, 29.5196, 1840.58, 30.034, 29844.7, 30380.4, 5305.79, -0.139084, 47.989
0, 0.04200, 59.5384, 49.14, 0.773938, 372163, -1679.3, -2.90104, 0.00769398, 0.007, 0.0409, 0.0062, 0.0267, 3.62, 0.1, 1677.36, 27.6756, 1799.83, 28.1958, 28486.8, 29049.4, 5020.94, -0.152832, 53.5423
0, 0.04300, 59.5338, 48.9729, 0.766833, 372163, -1626.85, -2.92988, 0.00777052, 0.007, 0.0409, 0.0062, 0.0267, 3.62, 0.1, 1639.01, 22.7469, 1760.23, 23.3155, 27196.9, 27783.3, 4754.78, -0.16683, 58.2272
0, 0.04400, 59.5293, 48.8043, 0.759892, 372163, -1576.17, -2.95781, 0.00784466, 0.007, 0.0409, 0.0062, 0.0267, 3.62, 0.1, 1601.7, 20.006, 1721.69, 20.7347, 25972.1, 26579.1, 4505.51, -0.181068, 62.2214
0, 0.04500, 59.525, 48.634, 0.75311, 372163, -1527.62, -2.98488, 0.00791651, 0.007, 0.0409, 0.0062, 0.0267, 3.62, 0.1, 1565.37, 26.0924, 1684.13, 26.9497, 24810.1, 25434.8, 4271.62, -0.195478, 65.6468
0, 0.04600, 59.5208, 48.4623, 0.746484, 372163, -1481.69, -3.01112, 0.00798617, 0.007, 0.0409, 0.0062, 0.0267, 3.62, 0.1, 1530.01, 37.5258, 1647.55, 38.4846, 23709.6, 24348.9, 4052.12, -0.209959, 68.5944
0, 0.04700, 59.5168, 48.289, 0.740011, 372163, -1438.74, -3.03658, 0.00805377, 0.007, 0.0409, 0.0062, 0.0267, 3.62, 0.1, 1495.68, 48.2404, 1612.01, 49.3054, 22667.6, 23318.8, 3846.35, -0.224431, 71.1443
0, 0.04800, 59.5128, 48.1143, 0.733687, 372163, -1398.55, -3.06132, 0.00811945, 0.007, 0.0409, 0.0062, 0.0267, 3.62, 0.1, 1462.47, 54.9016, 1577.58, 56.0577, 21679.9, 22340.9, 3653.79, -0.238918, 73.3751
0, 0.04900, 59.509, 47.9382, 0.727509, 372163, -1360.25, -3.08537, 0.00818331, 0.007, 0.0409, 0.0062, 0.0267, 3.62, 0.1, 1430.39, 56.474, 1544.31, 57.7168, 20742.5, 21411.3, 3473.74, -0.253541, 75.3562
0, 0.05000, 59.5053, 47.7608, 0.721471, 372163, -1322.87, -3.10878, 0.00824542, 0.007, 0.0409, 0.0062, 0.0267, 3.62, 0.1, 1399.39, 54.6943, 1512.11, 56.0711, 19852.5, 20527.2, 3305.09, -0.268441, 77.138
0, 0.05100, 59.5017, 47.582, 0.715572, 372163, -1285.99, -3.13154, 0.00830581, 0.007, 0.0409, 0.0062, 0.0267, 3.62, 0.1, 1369.28, 54.7867, 1480.8, 56.3847, 19008.7, 19687.5, 3146.41, -0.283681, 78.7486
0, 0.05200, 59.4981, 47.4019, 0.709808, 372163, -1250.07, -3.15366, 0.00836451, 0.007, 0.0409, 0.0062, 0.0267, 3.62, 0.1, 1339.9, 62.5676, 1450.22, 64.4153, 18212.2, 18892.6, 2996.43, -0.299163, 80.1965
0, 0.05300, 59.4947, 47.2206, 0.704178, 372163, -1216.35, -3.17516, 0.00842161, 0.007, 0.0409, 0.0062, 0.0267, 3.62, 0.1, 1311.18, 77.7879, 1420.3, 79.8698, 17463.1, 18142.7, 2854.42, -0.314636, 81.4834
0, 0.05400, 59.4914, 47.0381, 0.698679, 372163, -1186.05, -3.1961, 0.00847722, 0.007, 0.0409, 0.0062, 0.0267, 3.62, 0.1, 1283.21, 95.0669, 1391.14, 97.3825, 16758.8, 17435.5, 2720.27, -0.329856, 82.6194
0, 0.05500, 59.4881, 46.8544, 0.693308, 372163, -1159.31, -3.21654, 0.00853151, 0.007, 0.0409, 0.0062, 0.0267, 3.62, 0.1, 1256.21, 110.342, 1362.96, 112.892, 16096.7, 16768.9, 2594.4, -0.344744, 83.6264
0, 0.05600, 59.4849, 46.6695, 0.688061, 372163, -1134.84, -3.23654, 0.00858461, 0.007, 0.0409, 0.0062, 0.0267, 3.62, 0.1, 1230.39, 119.706, 1335.96, 122.505, 15468.6, 16135.8, 2477.05, -0.359526, 84.5421
0, 0.05700, 59.4818, 46.4835, 0.682934, 372163, -1110.57, -3.25613, 0.00863659, 0.007, 0.0409, 0.0062, 0.0267, 3.62, 0.1, 1205.71, 125.344, 1310.1, 128.451, 14874.1, 15535.7, 2367.6, -0.374553, 85.3925
0, 0.05800, 59.4788, 46.2964, 0.677924, 372163, -1084.91, -3.27529, 0.00868741, 0.007, 0.0409, 0.0062, 0.0267, 3.62, 0.1, 1181.94, 132.346, 1285.12, 135.857, 14317.8, 14972.1, 2264.74, -0.390123, 86.1876
0, 0.05900, 59.4758, 46.1082, 0.673027, 372163, -1058.14, -3.294, 0.00873702, 0.007, 0.0409, 0.0062, 0.0267, 3.62, 0.1, 1158.69, 146.757, 1260.66, 150.747, 13807.6, 14452, 2166.82, -0.40618, 86.9159
0, 0.06000, 59.4729, 45.919, 0.668245, 372163, -1032.67, -3.31223, 0.00878542, 0.007, 0.0409, 0.0062, 0.0267, 3.62, 0.1, 1135.67, 170.508, 1236.42, 175.006, 13349.3, 13980.3, 2072.67, -0.422258, 87.557
0, 0.06100, 59.47, 45.7287, 0.663576, 372163, -1011.65, -3.33004, 0.00883274, 0.007, 0.0409, 0.0062, 0.0267, 3.62, 0.1, 1112.93, 199.853, 1212.47, 204.878, 12941.8, 13556.2, 1982.29, -0.437707, 88.0993
0, 0.06200, 59.4672, 45.5374, 0.659019, 372163, -996.719, -3.34752, 0.00887923, 0.007, 0.0409, 0.0062, 0.0267, 3.62, 0.1, 1090.88, 229.113, 1189.22, 234.693, 12576.8, 13172.9, 1896.82, -0.452092, 88.5516
0, 0.06300, 59.4645, 45.3451, 0.65457, 372163, -986.485, -3.36478, 0.00892514, 0.007, 0.0409, 0.0062, 0.0267, 3.62, 0.1, 1070.03, 254.583, 1167.19, 260.765, 12245.6, 12823.4, 1817.63, -0.465556, 88.9409
0, 0.06400, 59.4618, 45.1518, 0.650223, 372163, -976.789, -3.38189, 0.00897058, 0.007, 0.0409, 0.0062, 0.0267, 3.62, 0.1, 1050.7, 276.693, 1146.67, 283.57, 11949.6, 12509.1, 1745.23, -0.478845, 89.2956
0, 0.06500, 59.4591, 44.9576, 0.645973, 372163, -963.283, -3.39884, 0.00901549, 0.007, 0.0409, 0.0062, 0.0267, 3.62, 0.1, 1032.66, 300.185, 1127.42, 307.893, 11706.3, 12245.5, 1678.53, -0.492838, 89.6234
0, 0.06600, 59.4564, 44.7623, 0.641817, 372163, -944.843, -3.41551, 0.00905966, 0.007, 0.0409, 0.0062, 0.0267, 3.62, 0.1, 1015.17, 331.671, 1108.67, 340.347, 11545.2, 12058.3, 1615.04, -0.507858, 89.8998
0, 0.06700, 59.4538, 44.5662, 0.637757, 372163, -925.274, -3.43183, 0.00910295, 0.007, 0.0409, 0.0062, 0.0267, 3.62, 0.1, 997.401, 375.049, 1089.6, 384.803, 11493.4, 11971.5, 1552.25, -0.523233, 90.0793
0, 0.06800, 59.4513, 44.3691, 0.633795, 372163, -911.972, -3.44781, 0.00914548, 0.007, 0.0409, 0.0062, 0.0267, 3.62, 0.1, 978.993, 428.712, 1069.9, 439.63, 11561.8, 11995.2, 1489.29, -0.53747, 90.1203
0, 0.06900, 59.4487, 44.1711, 0.629934, 372163, -910.7, -3.46362, 0.00918767, 0.007, 0.0409, 0.0062, 0.0267, 3.62, 0.1, 960.428, 487.351, 1050.08, 499.525, 11741, 12122.9, 1427.6, -0.549054, 90.0075
0, 0.07000, 59.4462, 43.9722, 0.626171, 372163, -921.742, -3.47949, 0.00923009, 0.007, 0.0409, 0.0062, 0.0267, 3.62, 0.1, 942.879, 546.106, 1031.35, 559.658, 12017.6, 12344.4, 1370.29, -0.557459, 89.7575
0, 0.07100, 59.449, 43.7724, 0.628105, 372163, 2906.78, -3.49563, 0.00918414, 0.007, 0.0409, 0.0062, 0.0267, 3.62, 0.1, 2421.98, 537.539, 2341.94, 552.694, 62301.5, 51911, 7109.26, 0.449161, 85.6331
0, 0.07200, 59.4567, 43.5745, 0.635553, 372163, 2657.02, -3.41201, 0.00905535, 0.007, 0.0409, 0.0062, 0.0267, 3.62, 0.1, 2359.14, 619.232, 2277.55, 636.382, 60216.9, 50136.2, 6819.54, 0.447816, 85.7033
0, 0.07300, 59.4639, 43.3803, 0.642781, 372163, 2537.09, -3.367, 0.00893511, 0.007, 0.0409, 0.0062, 0.0267, 3.62, 0.1, 2305.04, 731.882, 2222.14, 751.098, 59203.3, 49328, 6578.88, 0.447315, 85.5921
0, 0.07400, 59.4708, 43.1886, 0.649867, 372163, 2409.25, -3.32382, 0.00882061, 0.007, 0.0409, 0.0062, 0.0267, 3.62, 0.1, 2258.35, 850.266, 2174.22, 871.627, 58942.3, 49192.5, 6379.38, 0.44529, 85.2732
0, 0.07500, 59.4772, 42.9993, 0.65683, 372163, 2258.16, -3.28289, 0.00871257, 0.007, 0.0409, 0.0062, 0.0267, 3.62, 0.1, 2216.7, 952.746, 2131.31, 976.398, 58925.9, 49272, 6205.47, 0.4412, 84.8199
0, 0.07600, 59.4833, 42.8123, 0.66369, 372163, 2082.71, -3.24475, 0.00861209, 0.007, 0.0409, 0.0062, 0.0267, 3.62, 0.1, 2175.76, 1035.77, 2089.04, 1062.03, 58777.1, 49237.7, 6030.75, 0.436449, 84.3283
0, 0.07700, 59.4888, 42.6274, 0.67045, 372163, 1907.24, -3.20979, 0.00851973, 0.007, 0.0409, 0.0062, 0.0267, 3.62, 0.1, 2131.89, 1116.72, 2043.82, 1146.13, 58627.7, 49227.2, 5834.29, 0.433858, 83.8272
0, 0.07800, 59.4939, 42.4444, 0.67709, 372163, 1751.69, -3.17782, 0.00843503, 0.007, 0.0409, 0.0062, 0.0267, 3.62, 0.1, 2082.76, 1225.2, 1993.45, 1258.38, 59103.4, 49823.9, 5604.57, 0.435337, 83.1836
0, 0.07900, 59.4986, 42.2632, 0.68358, 372163, 1622.39, -3.14838, 0.00835693, 0.007, 0.0409, 0.0062, 0.0267, 3.62, 0.1, 2031.47, 1382.36, 1941.16, 1419.76, 61115.6, 51854.1, 5361.49, 0.440588, 82.1268
0, 0.08000, 59.5029, 42.0836, 0.689898, 372163, 1499.97, -3.12099, 0.00828465, 0.007, 0.0409, 0.0062, 0.0267, 3.62, 0.1, 1984.86, 1584.85, 1893.81, 1626.81, 65302.1, 55881.2, 5143.74, 0.446503, 80.3613
0, 0.08100, 59.5069, 41.9055, 0.696055, 372163, 1348.19, -3.09569, 0.00821872, 0.007, 0.0409, 0.0062, 0.0267, 3.62, 0.1, 1949.41, 1811.67, 1857.75, 1858.53, 71688.8, 61909, 4984.44, 0.448419, 77.6513
0, 0.08200, 59.5103, 41.7288, 0.70209, 372163, 1111.48, -3.0733, 0.00816179, 0.007, 0.0409, 0.0062, 0.0267, 3.62, 0.1, 1923.35, 2041.15, 1830.91, 2093.35, 79616.8, 69341, 4869.51, 0.443009, 73.7928
0, 0.08300, 59.5129, 41.5532, 0.708054, 372163, 784.65, -3.05564, 0.00811789, 0.007, 0.0409, 0.0062, 0.0267, 3.62, 0.1, 1900.81, 2263.78, 1807.27, 2321.95, 88445.4, 77619.2, 4763.88, 0.432245, 68.6129
0, 0.08400, 59.5145, 41.3784, 0.713969, 372163, 371.807, -3.04426, 0.00809112, 0.007, 0.0409, 0.0062, 0.0267, 3.62, 0.1, 1869.25, 2492.86, 1774.32, 2557.9, 98270.5, 86883.7, 4599.12, 0.421748, 61.6215
0, 0.08500, 59.515, 41.2041, 0.719807, 372163, -54.9079, -3.04053, 0.00808379, 0.007, 0.0409, 0.0062, 0.0267, 3.62, 0.1, 1825.33, 2757.02, 1729.07, 2829.99, 110665, 98605.5, 4360.81, 0.420545, 52.1277
0, 0.08600, 59.5142, 41.0298, 0.725506, 372163, -468.32, -3.04416, 0.0080959, 0.007, 0.0409, 0.0062, 0.0267, 3.62, 0.1, 1770.33, 3083.75, 1673.17, 3165.69, 127981, 114946, 4062.07, 0.433024, 38.4073
0, 0.08700, 59.5123, 40.8551, 0.731, 372163, -906.687, -3.05486, 0.00812773, 0.007, 0.0409, 0.0062, 0.0267, 3.62, 0.1, 1717.41, 3478.45, 1620.03, 3570.34, 152330, 137814, 3772.83, 0.457548, 17.1581
0, 0.08800, 59.5091, 40.6795, 0.73628, 372163, -1432.99, -3.07329, 0.00818189, 0.007, 0.0409, 0.0062, 0.0267, 3.62, 0.1, 1684.15, 3932.06, 1587.06, 4034.89, 185210, 168540, 3571.97, 0.482677, -19.9177
0, 0.08900, 59.5041, 40.5026, 0.741412, 372163, -2191.41, -3.10156, 0.00826579, 0.007, 0.0409, 0.0062, 0.0267, 3.62, 0.1, 1672.92, 4425.93, 1575.92, 4540.82, 226610, 207122, 3457.64, 0.483302, -105.094
0, 0.09000, 59.4965, 40.3237, 0.746506, 372163, -3281.21, -3.14474, 0.00839247, 0.007, 0.0409, 0.0062, 0.0267, 3.62, 0.1, 1678.44, 4946.78, 1580.69, 5075.1, 276212, 253318, 3393.8, 0.402557, -473.895
0, 0.09100, 59.4853, 40.1417, 0.751648, 372163, -4732.39, -3.20904, 0.00857797, 0.007, 0.0409, 0.0062, 0.0267, 3.62, 0.1, 1669.53, 5502.52, 1570.01, 5645.97, 334690, 307888, 3233.09, 0.932303, 1087.47
0, 0.09200, 59.4697, 39.9552, 0.75681, 372163, -6507.12, -3.30093, 0.00883814, 0.007, 0.0409, 0.0062, 0.0267, 3.62, 0.1, 1628.89, 6122.17, 1527.24, 6282.78, 406246, 374803, 2907.46, 0.576302, 412.941
0, 0.09300, 59.4489, 39.7625, 0.761871, 372163, -8466.01, -3.42539, 0.00918474, 0.007, 0.0409, 0.0062, 0.0267, 3.62, 0.1, 1562.95, 6836.59, 1459.95, 7016.55, 497826, 460492, 2468.86, 0.493404, 314.14
0, 0.09400, 59.4223, 39.5616, 0.766679, 372163, -10702.5, -3.58484, 0.00962846, 0.007, 0.0409, 0.0062, 0.0267, 3.62, 0.1, 1488.29, 7664.89, 1385.65, 7866.48, 617104, 572004, 2003.39, 0.44958, 277.585
0, 0.09500, 59.3889, 39.3505, 0.77115, 372163, -13341.2, -3.78474, 0.010185, 0.007, 0.0409, 0.0062, 0.0267, 3.62, 0.1, 1443.01, 8609.73, 1342.68, 8835.35, 771408, 716028, 1638.87, 0.431085, 258.574
0, 0.09600, 59.3471, 39.1265, 0.775364, 372163, -16786.2, -4.03343, 0.0108824, 0.007, 0.0409, 0.0062, 0.0267, 3.62, 0.1, 1449.94, 9663.64, 1352.25, 9915.93, 966549, 897919, 1409.8, 0.433361, 244.09
0, 0.09700, 59.2939, 38.8865, 0.779532, 372163, -21453.7, -4.34742, 0.0117676, 0.007, 0.0409, 0.0062, 0.0267, 3.62, 0.1, 1496.97, 10817.6, 1399.8, 11099.5, 1.20718E006, 1.12209E006, 1241.66, 0.449394, 230.292
0, 0.09800, 59.2258, 38.6258, 0.78388, 372163, -27585.3, -4.75101, 0.0129028, 0.007, 0.0409, 0.0062, 0.0267, 3.62, 0.1, 1537, 12078.2, 1437.42, 12393.3, 1.50057E006, 1.39555E006, 982.692, 0.464359, 218.948
