hour, t(sec), V1, VAngle1, V2, VAngle2, V3, VAngle3, I1, IAngle1, I2, IAngle2, I3, IAngle3
0, 0.00100, 276.103, 56.8622, 280.896, -62.4231, 274.3, 177.481, 482.129, 40.0972, 488.438, -86.366, 437.165, 156.127
0, 0.00200, 275.715, 56.7388, 280.863, -62.5795, 274.119, 177.357, 463.843, 40.0611, 470.743, -87.1841, 415.266, 155.585
0, 0.00300, 275.436, 56.6544, 280.823, -62.6871, 273.977, 177.272, 451.593, 40.1365, 458.902, -87.6967, 400.38, 155.28
0, 0.00400, 275.233, 56.5943, 280.781, -62.7644, 273.868, 177.211, 443.773, 40.2141, 451.353, -88.0425, 390.654, 155.085
0, 0.00500, 275.083, 56.5506, 280.743, -62.8199, 273.786, 177.166, 438.891, 40.2998, 446.554, -88.2727, 384.235, 154.984
0, 0.00600, 274.971, 56.5186, 280.709, -62.8601, 273.724, 177.133, 436.1, 40.3751, 443.627, -88.4218, 380.2, 154.954
0, 0.00700, 274.885, 56.4948, 280.682, -62.8896, 273.675, 177.109, 434.734, 40.4294, 441.972, -88.5057, 377.936, 154.972
0, 0.00800, 274.819, 56.4772, 280.659, -62.9117, 273.634, 177.089, 434.27, 40.4644, 441.234, -88.5322, 376.99, 155.011
0, 0.00900, 274.768, 56.4639, 280.64, -62.929, 273.598, 177.075, 434.342, 40.496, 441.227, -88.5113, 376.944, 155.048
0, 0.01000, 274.73, 56.4533, 280.621, -62.943, 273.567, 177.063, 434.795, 40.5395, 441.856, -88.4629, 377.445, 155.071
0, 0.01100, 274.701, 56.4443, 280.601, -62.9545, 273.54, 177.054, 435.613, 40.6034, 442.983, -88.412, 378.197, 155.088
0, 0.01200, 274.676, 56.4361, 280.58, -62.9636, 273.518, 177.047, 436.838, 40.6793, 444.392, -88.3777, 379.045, 155.12
0, 0.01300, 274.652, 56.4285, 280.559, -62.9708, 273.502, 177.04, 438.447, 40.7448, 445.833, -88.3611, 380.013, 155.186
0, 0.01400, 274.626, 56.4217, 280.542, -62.9764, 273.487, 177.034, 440.281, 40.7782, 447.132, -88.3442, 381.235, 155.287
0, 0.01500, 274.601, 56.4163, 280.53, -62.9815, 273.472, 177.027, 442.08, 40.7752, 448.294, -88.3004, 382.827, 155.398
0, 0.01600, 274.579, 56.4121, 280.521, -62.9869, 273.452, 177.021, 443.623, 40.7571, 449.509, -88.2147, 384.738, 155.48
0, 0.01700, 274.563, 56.4086, 280.51, -62.993, 273.428, 177.015, 444.879, 40.7604, 451.024, -88.0993, 386.726, 155.509
0, 0.01800, 274.552, 56.4046, 280.495, -62.9994, 273.405, 177.011, 446.061, 40.8133, 452.953, -87.9914, 388.468, 155.494
0, 0.01900, 274.544, 56.3995, 280.473, -63.0052, 273.387, 177.008, 447.514, 40.9117, 455.138, -87.9315, 389.777, 155.479
0, 0.02000, 274.531, 56.3933, 280.449, -63.0093, 273.377, 177.005, 449.472, 41.0149, 457.195, -87.9331, 390.764, 155.519
0, 0.02100, 177.887, 54.4085, 175.778, -65.8895, 178.332, 173.934, 2788.87, 149.911, 2798.96, 29.6136, 2781.37, -90.418
0, 0.02200, 176.896, 54.415, 174.792, -65.8792, 177.367, 173.944, 2719.55, 149.309, 2728.78, 29.0816, 2714.8, -90.9735
0, 0.02300, 175.919, 54.4269, 173.856, -65.8657, 176.427, 173.948, 2650.82, 148.711, 2661.81, 28.5677, 2650.58, -91.5666
0, 0.02400, 174.967, 54.4477, 172.963, -65.8562, 175.488, 173.95, 2583.22, 148.139, 2598.41, 28.0378, 2586.88, -92.2029
0, 0.02500, 174.058, 54.4749, 172.095, -65.8554, 174.543, 173.955, 2518.34, 147.599, 2537.8, 27.4593, 2522.78, -92.8537
0, 0.02600, 173.202, 54.5007, 171.225, -65.8617, 173.609, 173.971, 2457.47, 147.063, 2478.19, 26.8178, 2458.73, -93.4781
0, 0.02700, 172.384, 54.5172, 170.341, -65.8672, 172.714, 173.998, 2400.32, 146.484, 2417.86, 26.1371, 2396.49, -94.053
0, 0.02800, 171.574, 54.5219, 169.45, -65.8616, 171.877, 174.03, 2345.16, 145.825, 2356.41, 25.468, 2338.12, -94.5929
0, 0.02900, 170.743, 54.5215, 168.584, -65.8398, 171.097, 174.053, 2289.43, 145.09, 2295.37, 24.8614, 2284.48, -95.1534
0, 0.03000, 169.886, 54.5289, 167.78, -65.8075, 170.342, 174.06, 2231.58, 144.336, 2237.52, 24.3274, 2234.26, -95.8002
0, 0.03100, 169.033, 54.5552, 167.05, -65.7789, 169.567, 174.055, 2172.38, 143.642, 2185.09, 23.8147, 2184.43, -96.5599
0, 0.03200, 168.233, 54.6, 166.366, -65.7688, 168.749, 174.05, 2114.91, 143.059, 2137.88, 23.2305, 2131.98, -97.3891
0, 0.03300, 167.52, 54.6495, 165.675, -65.7805, 167.905, 174.064, 2062.86, 142.558, 2092.84, 22.5015, 2076.24, -98.1869
0, 0.03400, 166.884, 54.6828, 164.927, -65.8009, 167.09, 174.106, 2017.86, 142.028, 2045.63, 21.6359, 2019.84, -98.8518
0, 0.03500, 166.268, 54.6869, 164.118, -65.8058, 166.365, 174.165, 1977.66, 141.337, 1993.45, 20.7397, 1967.65, -99.361
0, 0.03600, 165.598, 54.6687, 163.304, -65.7763, 165.753, 174.216, 1936.94, 140.432, 1937.54, 19.9677, 1923.63, -99.8158
0, 0.03700, 164.837, 54.6543, 162.571, -65.714, 165.205, 174.234, 1890.47, 139.396, 1883.2, 19.4218, 1887.58, -100.4
0, 0.03800, 164.02, 54.6745, 161.978, -65.646, 164.626, 174.213, 1836.94, 138.428, 1836.92, 19.0523, 1854.24, -101.26
0, 0.03900, 163.248, 54.7422, 161.503, -65.6103, 163.936, 174.178, 1780.87, 137.731, 1801.74, 18.644, 1816.06, -102.38
0, 0.04000, 162.625, 54.8369, 161.039, -65.6287, 163.127, 174.169, 1730.84, 137.359, 1773.98, 17.9399, 1768.15, -103.558
0, 0.04100, 162.178, 54.9128, 160.46, -65.6866, 162.298, 174.219, 1694.06, 137.116, 1744.47, 16.8316, 1712.41, -104.489
0, 0.04200, 161.817, 54.9271, 159.703, -65.7347, 161.598, 174.324, 1670.37, 136.63, 1704.12, 15.4736, 1657.93, -104.964
0, 0.04300, 161.377, 54.8743, 158.841, -65.7176, 161.126, 174.438, 1650.64, 135.607, 1650.36, 14.2397, 1616.26, -105.068
0, 0.04400, 160.721, 54.7992, 158.056, -65.6148, 160.841, 174.494, 1621.66, 134.077, 1590.59, 13.5293, 1593.05, -105.227
0, 0.04500, 159.857, 54.776, 157.528, -65.4667, 160.562, 174.455, 1574.72, 132.426, 1539.64, 13.4746, 1582.08, -105.955
0, 0.04600, 158.964, 54.859, 157.295, -65.3589, 160.067, 174.349, 1512.61, 131.244, 1510.61, 13.7069, 1567.52, -107.462
0, 0.04700, 158.299, 55.0351, 157.188, -65.3669, 159.255, 174.26, 1450.83, 130.981, 1503.76, 13.489, 1533.61, -109.456
0, 0.04800, 158.021, 55.2154, 156.91, -65.4952, 158.255, 174.284, 1410.2, 131.511, 1503.39, 12.255, 1475.33, -111.241
0, 0.04900, 158.038, 55.2853, 156.232, -65.6577, 157.381, 174.455, 1401.57, 131.964, 1486.84, 10.0625, 1404.47, -112.029
0, 0.05000, 158.019, 55.1875, 155.183, -65.7195, 156.941, 174.703, 1414.15, 131.287, 1438.86, 7.61278, 1346.74, -111.477
0, 0.05100, 157.592, 54.9794, 154.092, -65.5858, 156.997, 174.876, 1420.19, 129.098, 1362.84, 5.98382, 1326.47, -110.28
0, 0.05200, 156.611, 54.816, 153.417, -65.2878, 157.251, 174.848, 1392.56, 125.958, 1284.26, 6.12471, 1345.05, -109.964
0, 0.05300, 155.324, 54.8597, 153.419, -64.9943, 157.191, 174.614, 1321.62, 123.121, 1240.5, 7.93661, 1374.84, -111.616
0, 0.05400, 154.293, 55.1591, 153.909, -64.9131, 156.432, 174.324, 1225.17, 122.139, 1252.8, 9.65179, 1377.1, -115.06
0, 0.05500, 154.035, 55.5738, 154.284, -65.1366, 155.028, 174.21, 1146.95, 123.954, 1302.16, 9.18369, 1326.5, -119.087
0, 0.05600, 154.599, 55.8348, 153.901, -65.5464, 153.555, 174.432, 1135.79, 127.348, 1340.67, 5.86959, 1223.58, -121.791
0, 0.05700, 155.428, 55.7311, 152.537, -65.8603, 152.8, 174.935, 1195.35, 128.844, 1322.55, 0.820479, 1109.22, -121.084
0, 0.05800, 155.638, 55.2821, 150.664, -65.789, 153.204, 175.422, 1273.83, 126.387, 1229.91, -3.92512, 1052.69, -116.599
0, 0.05900, 154.613, 54.7654, 149.283, -65.2554, 154.421, 175.536, 1305.3, 120.668, 1086.46, -5.55734, 1099.12, -112.216
0, 0.06000, 152.518, 54.58, 149.292, -64.5328, 155.409, 175.13, 1247.06, 113.77, 966.926, -1.34919, 1210.94, -112.531
0, 0.06100, 150.387, 54.9931, 150.727, -64.1215, 155.077, 174.414, 1097.28, 108.672, 967.482, 6.58953, 1302.16, -117.924
0, 0.06200, 149.583, 55.877, 152.533, -64.3833, 153.059, 173.865, 911.994, 109.84, 1096, 10.0954, 1301.76, -126.237
0, 0.06300, 150.79, 56.6752, 153.159, -65.2451, 150.168, 173.978, 821.232, 120.446, 1251.01, 6.02411, 1178.94, -134.611
0, 0.06400, 153.273, 56.771, 151.589, -66.1959, 148.14, 174.892, 930.132, 130.692, 1327.12, -3.18618, 956.659, -138.693
0, 0.06500, 155.177, 55.9773, 148.174, -66.5284, 148.529, 176.122, 1148.04, 129.872, 1262.59, -14.446, 746.574, -130.686
0, 0.06600, 154.704, 54.7054, 144.78, -65.7612, 151.352, 176.784, 1321.29, 120.534, 1045.78, -24.229, 763.067, -111.72
0, 0.06700, 151.369, 53.781, 143.846, -64.1497, 154.734, 176.286, 1351.22, 106.992, 735.218, -24.8832, 1019.84, -105.473
0, 0.06800, 146.68, 54.0446, 146.496, -62.777, 156.042, 174.798, 1193.52, 92.2879, 562.554, -0.0707358, 1298.34, -113.365
0, 0.06900, 143.702, 55.7189, 151.225, -62.7502, 153.604, 173.172, 856.336, 80.6155, 807.225, 21.5142, 1447.37, -127.976
0, 0.07000, 145.075, 57.8478, 154.698, -64.2805, 148.008, 172.578, 446.487, 89.9254, 1195.55, 16.4917, 1390.35, -145.581
0, 0.07100, 245.821, 59.693, 256.886, -63.017, 234.784, 177.573, 2421.42, -17.9966, 2014.95, -116.137, 2922.6, 118.965
0, 0.07200, 253.015, 58.8891, 251.263, -64.1533, 234.533, 179.237, 1865.95, -15.7762, 2413.99, -110.687, 2921.97, 108.826
0, 0.07300, 256.157, 57.0843, 243.4, -63.812, 240.908, -179.424, 1616.02, 1.69614, 2879.37, -115.532, 2577.66, 98.3481
0, 0.07400, 252.309, 55.2407, 239.36, -61.8682, 250.886, -179.606, 2017.98, 16.3388, 3107.83, -126.473, 1933.48, 92.6399
0, 0.07500, 242.892, 54.6443, 243.979, -59.5395, 258.207, 178.535, 2678.48, 13.9045, 2934.35, -139.902, 1296.05, 105.916
0, 0.07600, 234.06, 56.208, 256.066, -58.688, 257.465, 175.913, 3146.52, 1.93494, 2322.25, -152.349, 1458.38, 138.23
0, 0.07700, 233.814, 59.335, 268.382, -60.1392, 247.572, 174.083, 3186.53, -14.2865, 1399.17, -154.451, 2294.42, 142.719
0, 0.07800, 245.084, 61.6732, 272.602, -63.216, 233.655, 174.686, 2699.65, -32.1604, 936.218, -108.57, 3058.17, 130.528
0, 0.07900, 261.793, 61.262, 264.343, -66.2884, 226.247, 178.232, 1710.32, -48.6166, 1882.91, -85.1939, 3412.16, 112.185
0, 0.08000, 273.329, 58.185, 246.335, -67.2071, 234.12, -177.612, 455.219, -31.2919, 2984.49, -96.826, 3199.96, 90.6138
0, 0.08100, 271.103, 53.9685, 230.057, -64.1858, 254.668, -176.312, 1329.13, 58.0723, 3710.57, -116.708, 2390.01, 66.1916
0, 0.08200, 253.378, 50.9253, 230.806, -58.3783, 274.944, -178.92, 2771.01, 41.8208, 3841.48, -140.357, 1077.62, 34.0366
0, 0.08300, 228.777, 51.9522, 252.684, -54.6617, 281.601, 175.941, 3863.66, 18.2799, 3289.47, -167.632, 681.832, -131.923
0, 0.08400, 216.161, 58.3663, 282.252, -56.0171, 267.457, 170.689, 4359.79, -8.31069, 2127.71, 156.978, 2364.4, -175.1
0, 0.08500, 231.551, 65.5593, 300.429, -61.4756, 236.642, 168.724, 4133.14, -38.4169, 978.737, 75.5204, 3841.63, 155.049
0, 0.08600, 267.249, 66.9582, 294.325, -68.4858, 207.388, 174.01, 3235.64, -75.6475, 2112.9, -21.7847, 4795.52, 125.197
0, 0.08700, 300, 62.2044, 261.498, -73.7346, 208.913, -174.969, 2146.77, -134.07, 3903.65, -63.0577, 5029.95, 93.1404
0, 0.08800, 309.364, 54.0322, 215.87, -72.0591, 248.173, -169.055, 2423.1, 140.725, 5336.63, -97.0003, 4532.23, 56.1253
0, 0.08900, 285.07, 45.568, 194.301, -59.1234, 297.47, -172.255, 4132.69, 84.4176, 6083.9, -130.915, 3615.17, 7.70035
0, 0.09000, 231.974, 41.4664, 229.535, -46.5611, 326.807, 178.818, 5900.93, 43.9916, 6028.04, -167.824, 3271.87, -59.7749
0, 0.09100, 179.326, 50.5882, 295.403, -46.6507, 317.317, 167.62, 7124.3, 6.86314, 5340.11, 148.124, 4463.48, -124.661
0, 0.09200, 187.649, 72.287, 347.99, -55.5914, 265.151, 157.858, 7557.19, -31.5216, 4751.89, 91.3488, 6380.52, -172.801
0, 0.09300, 261.455, 79.5156, 359.743, -68.6039, 186.074, 157.847, 7278.16, -74.5252, 5391.92, 27.6429, 8093.26, 146.111
0, 0.09400, 340.796, 72.0126, 318.071, -82.3404, 143.915, -174.812, 6821, -125.653, 7272.38, -26.4123, 9136.91, 106.124
0, 0.09500, 384.31, 58.136, 226.091, -91.9947, 216.619, -152.771, 7166.72, 176.152, 9415.53, -71.4609, 9413.55, 63.7949
0, 0.09600, 369.302, 41.5206, 123.102, -76.3003, 326.452, -157.672, 8818.09, 120.577, 11097.2, -113.31, 9249.79, 16.322
0, 0.09700, 289.17, 24.761, 163.251, -26.6998, 408.118, -172.521, 11168.3, 72.1586, 12007.1, -155.68, 9427.67, -37.0954
0, 0.09800, 157.027, 15.3804, 306.115, -26.4201, 427.595, 168.513, 13387.8, 27.9382, 12266.4, 158.749, 10725.7, -92.1118
0, 0.09900, 76.4964, 87.5763, 429.509, -42.2576, 372.193, 147.389, 14958, -15.5059, 12502.2, 108.439, 13084.2, -143.07
0, 0.10000, 240.415, 108.814, 491.681, -62.9239, 242.923, 124.819, 15831.4, -60.65, 13596.1, 55.1042, 15761.8, 170.329
0, 0.10100, 408.677, 91.8941, 469.632, -86.5768, 55.4518, 102.625, 16456.9, -109.062, 15939.1, 3.12751, 18076.3, 125.67
0, 0.10200, 523.578, 69.5013, 359.2, -113.64, 163.881, -104.217, 17642.3, -160.347, 19049.5, -45.2559, 19725.6, 80.6496
0, 0.10300, 554.409, 44.2349, 177.746, -151.798, 380.232, -128.94, 20009, 148.169, 22140, -91.0369, 20903.3, 33.6514
0, 0.10400, 487.4, 15.5084, 112.179, 71.0854, 553.822, -154.882, 23430.4, 98.9635, 24665.6, -136.171, 22285.2, -15.7872
0, 0.10500, 336.585, -21.1681, 350.54, 14.3073, 645.453, 177.678, 27198.9, 52.2354, 26563.7, 177.705, 24635.6, -66.3431
0, 0.10600, 179.042, -91.9624, 579.817, -17.7162, 633.397, 147.503, 30613.7, 6.68995, 28326, 129.669, 28204.6, -115.907
0, 0.10700, 294.215, 171.649, 736.609, -47.805, 523.048, 111.877, 33393.8, -39.0929, 30799.9, 80.1445, 32543.2, -163.417
0, 0.10800, 546.895, 126.18, 788.369, -79.0526, 363.544, 61.0901, 35812.4, -86.0893, 34581.7, 30.7659, 36871.5, 150.709
0, 0.10900, 768.04, 91.9081, 726.821, -114.023, 330.41, -18.3081, 38630.6, -134.379, 39501.9, -17.0186, 40621.5, 105.351
0, 0.11000, 897.446, 59.2332, 587.222, -157.395, 536.581, -81.9097, 42637, 177.042, 44810.8, -62.9473, 43757.7, 59.5134
0, 0.11100, 911.036, 24.9806, 479.527, 142.278, 799.082, -123.747, 48003, 129.556, 49648.8, -107.722, 46825.5, 12.6846
0, 0.11200, 823.894, -13.7077, 571.45, 74.5828, 1003.27, -159.254, 54125.8, 83.8931, 53628.9, -152.281, 50734.4, -34.6893
0, 0.11300, 697.628, -61.1869, 824.32, 23.9256, 1101.66, 166.16, 59992.2, 39.8894, 56904.5, 162.705, 56009.3, -81.4774
0, 0.11400, 657.715, -119.754, 1080.53, -15.4457, 1087.75, 129.913, 64792.2, -3.20086, 60353.7, 117.076, 62430.1, -126.598
0, 0.11500, 794.619, -176.74, 1258.47, -50.7885, 993.828, 89.4924, 68352.5, -46.058, 64903.1, 71.588, 69047.4, -169.685
0, 0.11600, 1034.03, 137.95, 1325.75, -85.5241, 894.614, 42.5719, 71095, -89.0996, 70881.8, 27.4064, 74704.1, 149.014
0, 0.11700, 1258.46, 100.343, 1290.49, -121.527, 890.502, -9.34833, 74060.4, -132.189, 77695.1, -14.5564, 78638.4, 108.894
0, 0.11800, 1405.58, 66.2, 1194.33, -160.319, 1017.9, -58.1273, 78142.7, -174.524, 84129, -54.0771, 80754.4, 69.3886
0, 0.11900, 1454.59, 33.2552, 1105.49, 157.236, 1212.96, -99.3321, 83497.3, 144.963, 89011, -91.3882, 81599.1, 30.2021
0, 0.12000, 1420.32, 0.196492, 1088.52, 112.719, 1389.69, -134.551, 89454.1, 107.037, 91651, -126.974, 82258.8, -8.60512
