hour, t(sec), Irradiance,PanelkW,P_TFactor,Efficiency,Vreg,Vavg (DRC),volt-var,volt-watt,DRC,VV_DRC,watt-pf,watt-var,kW_out_desired,Grid voltage,di/dt,it,it History,Rated VDC,Avg duty cycle,Target (Amps),Series L,Max. Amps (phase),
0, 0.00100, 1, 360, 1, 1, 9999, 9999, 9999, 9999, 9999, 9999, 9999, 9999, 360, 278.953, -366680, 240.356, 423.697, 30, 1, 430.18, 0.000848826, 433.013
0, 0.00200, 1, 360, 1, 1, 9999, 9999, 9999, 9999, 9999, 9999, 9999, 9999, 360, 276.172, -239055, -62.5114, 57.0162, 30, 1, 433.013, 0.000848826, 433.013
0, 0.00300, 1, 360, 1, 1, 9999, 9999, 9999, 9999, 9999, 9999, 9999, 9999, 360, 274.626, -169207, -266.643, -182.039, 30, 1, 433.013, 0.000848826, 433.013
0, 0.00400, 1, 360, 1, 1, 9999, 9999, 9999, 9999, 9999, 9999, 9999, 9999, 360, 273.468, -118958, -410.725, -351.246, 30, 1, 433.013, 0.000848826, 433.013
0, 0.00500, 1, 360, 1, 1, 9999, 9999, 9999, 9999, 9999, 9999, 9999, 9999, 360, 272.633, -83653.1, -512.031, -470.204, 30, 1, 433.013, 0.000848826, 433.013
0, 0.00600, 1, 360, 1, 1, 9999, 9999, 9999, 9999, 9999, 9999, 9999, 9999, 360, 272.036, -58814.3, -583.264, -553.857, 30, 1, 433.013, 0.000848826, 433.013
0, 0.00700, 1, 360, 1, 1, 9999, 9999, 9999, 9999, 9999, 9999, 9999, 9999, 360, 271.61, -41346.3, -633.345, -612.671, 30, 1, 433.013, 0.000848826, 433.013
0, 0.00800, 1, 360, 1, 1, 9999, 9999, 9999, 9999, 9999, 9999, 9999, 9999, 360, 271.308, -29064.2, -668.55, -654.018, 30, 1, 433.013, 0.000848826, 433.013
0, 0.00900, 1, 360, 1, 1, 9999, 9999, 9999, 9999, 9999, 9999, 9999, 9999, 360, 271.097, -20431.1, -693.298, -683.082, 30, 1, 433.013, 0.000848826, 433.013
0, 0.01000, 1, 360, 1, 1, 9999, 9999, 9999, 9999, 9999, 9999, 9999, 9999, 360, 270.946, -14360.1, -710.693, -703.513, 30, 1, 433.013, 0.000848826, 433.013
0, 0.01100, 1, 360, 1, 1, 9999, 9999, 9999, 9999, 9999, 9999, 9999, 9999, 360, 270.84, -10093.3, -722.92, -717.873, 30, 1, 433.013, 0.000848826, 433.013
0, 0.01200, 1, 360, 1, 1, 9999, 9999, 9999, 9999, 9999, 9999, 9999, 9999, 360, 270.766, -7094.61, -731.514, -727.966, 30, 1, 433.013, 0.000848826, 433.013
0, 0.01300, 1, 360, 1, 1, 9999, 9999, 9999, 9999, 9999, 9999, 9999, 9999, 360, 270.715, -4988.08, -737.555, -735.061, 30, 1, 433.013, 0.000848826, 433.013
0, 0.01400, 1, 360, 1, 1, 9999, 9999, 9999, 9999, 9999, 9999, 9999, 9999, 360, 270.679, -3506.74, -741.803, -740.049, 30, 1, 433.013, 0.000848826, 433.013
0, 0.01500, 1, 360, 1, 1, 9999, 9999, 9999, 9999, 9999, 9999, 9999, 9999, 360, 270.654, -2465.33, -744.789, -743.556, 30, 1, 433.013, 0.000848826, 433.013
0, 0.01600, 1, 360, 1, 1, 9999, 9999, 9999, 9999, 9999, 9999, 9999, 9999, 360, 270.636, -1733.19, -746.888, -746.021, 30, 1, 433.013, 0.000848826, 433.013
0, 0.01700, 1, 360, 1, 1, 9999, 9999, 9999, 9999, 9999, 9999, 9999, 9999, 360, 270.624, -1218.48, -748.364, -747.754, 30, 1, 433.013, 0.000848826, 433.013
0, 0.01800, 1, 360, 1, 1, 9999, 9999, 9999, 9999, 9999, 9999, 9999, 9999, 360, 270.615, -856.626, -749.401, -748.973, 30, 1, 433.013, 0.000848826, 433.013
0, 0.01900, 1, 360, 1, 1, 9999, 9999, 9999, 9999, 9999, 9999, 9999, 9999, 360, 270.609, -602.233, -750.131, -749.83, 30, 1, 433.013, 0.000848826, 433.013
0, 0.02000, 1, 360, 1, 1, 9999, 9999, 9999, 9999, 9999, 9999, 9999, 9999, 360, 270.605, -423.389, -750.643, -750.432, 30, 1, 433.013, 0.000848826, 433.013
0, 0.02100, 1, 360, 1, 1, 9999, 9999, 9999, 9999, 9999, 9999, 9999, 9999, 360, 138.684, 155114, -673.298, -750.855, 30, 1, 433.013, 0.000848826, 433.013
0, 0.02200, 1, 360, 1, 1, 9999, 9999, 9999, 9999, 9999, 9999, 9999, 9999, 360, 140.216, 71162.1, -560.16, -595.741, 30, 1, 433.013, 0.000848826, 433.013
0, 0.02300, 1, 360, 1, 1, 9999, 9999, 9999, 9999, 9999, 9999, 9999, 9999, 360, 140.59, 52122.8, -498.518, -524.579, 30, 1, 433.013, 0.000848826, 433.013
0, 0.02400, 1, 360, 1, 1, 9999, 9999, 9999, 9999, 9999, 9999, 9999, 9999, 360, 140.878, 36606.8, -454.153, -472.456, 30, 1, 433.013, 0.000848826, 433.013
0, 0.02500, 1, 360, 1, 1, 9999, 9999, 9999, 9999, 9999, 9999, 9999, 9999, 360, 141.078, 25791.4, -422.954, -435.85, 30, 1, 433.013, 0.000848826, 433.013
0, 0.02600, 1, 360, 1, 1, 9999, 9999, 9999, 9999, 9999, 9999, 9999, 9999, 360, 141.217, 18168, -400.974, -410.058, 30, 1, 433.013, 0.000848826, 433.013
0, 0.02700, 1, 360, 1, 1, 9999, 9999, 9999, 9999, 9999, 9999, 9999, 9999, 360, 141.315, 12798.1, -385.491, -391.89, 30, 1, 433.013, 0.000848826, 433.013
0, 0.02800, 1, 360, 1, 1, 9999, 9999, 9999, 9999, 9999, 9999, 9999, 9999, 360, 141.383, 9016.14, -374.584, -379.092, 30, 1, 433.013, 0.000848826, 433.013
0, 0.02900, 1, 360, 1, 1, 9999, 9999, 9999, 9999, 9999, 9999, 9999, 9999, 360, 141.431, 6351.93, -366.9, -370.076, 30, 1, 433.013, 0.000848826, 433.013
0, 0.03000, 1, 360, 1, 1, 9999, 9999, 9999, 9999, 9999, 9999, 9999, 9999, 360, 141.466, 4474.45, -361.487, -363.724, 30, 1, 433.013, 0.000848826, 433.013
0, 0.03100, 1, 360, 1, 1, 9999, 9999, 9999, 9999, 9999, 9999, 9999, 9999, 360, 141.489, 3152.41, -357.673, -359.25, 30, 1, 433.013, 0.000848826, 433.013
0, 0.03200, 1, 360, 1, 1, 9999, 9999, 9999, 9999, 9999, 9999, 9999, 9999, 360, 141.506, 2221.18, -354.987, -356.097, 30, 1, 433.013, 0.000848826, 433.013
0, 0.03300, 1, 360, 1, 1, 9999, 9999, 9999, 9999, 9999, 9999, 9999, 9999, 360, 141.518, 1564.4, -353.094, -353.876, 30, 1, 433.013, 0.000848826, 433.013
0, 0.03400, 1, 360, 1, 1, 9999, 9999, 9999, 9999, 9999, 9999, 9999, 9999, 360, 141.526, 1102.21, -351.761, -352.312, 30, 1, 433.013, 0.000848826, 433.013
0, 0.03500, 1, 360, 1, 1, 9999, 9999, 9999, 9999, 9999, 9999, 9999, 9999, 360, 141.532, 776.889, -350.821, -351.209, 30, 1, 433.013, 0.000848826, 433.013
0, 0.03600, 1, 360, 1, 1, 9999, 9999, 9999, 9999, 9999, 9999, 9999, 9999, 360, 141.536, 546.937, -350.159, -350.433, 30, 1, 433.013, 0.000848826, 433.013
0, 0.03700, 1, 360, 1, 1, 9999, 9999, 9999, 9999, 9999, 9999, 9999, 9999, 360, 141.539, 385.275, -349.693, -349.886, 30, 1, 433.013, 0.000848826, 433.013
0, 0.03800, 1, 360, 1, 1, 9999, 9999, 9999, 9999, 9999, 9999, 9999, 9999, 360, 141.541, 271.864, -349.364, -349.5, 30, 1, 433.013, 0.000848826, 433.013
0, 0.03900, 1, 360, 1, 1, 9999, 9999, 9999, 9999, 9999, 9999, 9999, 9999, 360, 141.543, 191.221, -349.133, -349.228, 30, 1, 433.013, 0.000848826, 433.013
0, 0.04000, 1, 360, 1, 1, 9999, 9999, 9999, 9999, 9999, 9999, 9999, 9999, 360, 141.544, 134.54, -348.97, -349.037, 30, 1, 433.013, 0.000848826, 433.013
0, 0.04100, 1, 360, 1, 1, 9999, 9999, 9999, 9999, 9999, 9999, 9999, 9999, 360, 141.544, 95.2441, -348.855, -348.903, 30, 1, 433.013, 0.000848826, 433.013
0, 0.04200, 1, 360, 1, 1, 9999, 9999, 9999, 9999, 9999, 9999, 9999, 9999, 360, 141.545, 66.9053, -348.774, -348.807, 30, 1, 433.013, 0.000848826, 433.013
0, 0.04300, 1, 360, 1, 1, 9999, 9999, 9999, 9999, 9999, 9999, 9999, 9999, 360, 141.545, 46.8341, -348.717, -348.741, 30, 1, 433.013, 0.000848826, 433.013
0, 0.04400, 1, 360, 1, 1, 9999, 9999, 9999, 9999, 9999, 9999, 9999, 9999, 360, 141.545, 33.4333, -348.677, -348.694, 30, 1, 433.013, 0.000848826, 433.013
0, 0.04500, 1, 360, 1, 1, 9999, 9999, 9999, 9999, 9999, 9999, 9999, 9999, 360, 141.545, 23.5082, -348.649, -348.66, 30, 1, 433.013, 0.000848826, 433.013
0, 0.04600, 1, 360, 1, 1, 9999, 9999, 9999, 9999, 9999, 9999, 9999, 9999, 360, 141.546, 16.1581, -348.629, -348.637, 30, 1, 433.013, 0.000848826, 433.013
0, 0.04700, 1, 360, 1, 1, 9999, 9999, 9999, 9999, 9999, 9999, 9999, 9999, 360, 141.546, 11.7492, -348.615, -348.621, 30, 1, 433.013, 0.000848826, 433.013
0, 0.04800, 1, 360, 1, 1, 9999, 9999, 9999, 9999, 9999, 9999, 9999, 9999, 360, 141.546, 8.39654, -348.605, -348.609, 30, 1, 433.013, 0.000848826, 433.013
0, 0.04900, 1, 360, 1, 1, 9999, 9999, 9999, 9999, 9999, 9999, 9999, 9999, 360, 141.546, 5.45118, -348.598, -348.6, 30, 1, 433.013, 0.000848826, 433.013
0, 0.05000, 1, 360, 1, 1, 9999, 9999, 9999, 9999, 9999, 9999, 9999, 9999, 360, 141.546, 4.0896, -348.593, -348.595, 30, 1, 433.013, 0.000848826, 433.013
0, 0.05100, 1, 360, 1, 1, 9999, 9999, 9999, 9999, 9999, 9999, 9999, 9999, 360, 141.546, 3.15149, -348.589, -348.591, 30, 1, 433.013, 0.000848826, 433.013
0, 0.05200, 1, 360, 1, 1, 9999, 9999, 9999, 9999, 9999, 9999, 9999, 9999, 360, 141.546, 1.75253, -348.587, -348.588, 30, 1, 433.013, 0.000848826, 433.013
0, 0.05300, 1, 360, 1, 1, 9999, 9999, 9999, 9999, 9999, 9999, 9999, 9999, 360, 141.546, 1.34009, -348.585, -348.586, 30, 1, 433.013, 0.000848826, 433.013
0, 0.05400, 1, 360, 1, 1, 9999, 9999, 9999, 9999, 9999, 9999, 9999, 9999, 360, 141.546, 1.32473, -348.584, -348.585, 30, 1, 433.013, 0.000848826, 433.013
0, 0.05500, 1, 360, 1, 1, 9999, 9999, 9999, 9999, 9999, 9999, 9999, 9999, 360, 141.546, 0.52397, -348.583, -348.583, 30, 1, 433.013, 0.000848826, 433.013
0, 0.05600, 1, 360, 1, 1, 9999, 9999, 9999, 9999, 9999, 9999, 9999, 9999, 360, 141.546, 0.322556, -348.583, -348.583, 30, 1, 433.013, 0.000848826, 433.013
0, 0.05700, 1, 360, 1, 1, 9999, 9999, 9999, 9999, 9999, 9999, 9999, 9999, 360, 141.546, 0.663426, -348.582, -348.583, 30, 1, 433.013, 0.000848826, 433.013
0, 0.05800, 1, 360, 1, 1, 9999, 9999, 9999, 9999, 9999, 9999, 9999, 9999, 360, 141.546, 0.167855, -348.582, -348.582, 30, 1, 433.013, 0.000848826, 433.013
0, 0.05900, 1, 360, 1, 1, 9999, 9999, 9999, 9999, 9999, 9999, 9999, 9999, 360, 141.546, -0.0687823, -348.582, -348.582, 30, 1, 433.013, 0.000848826, 433.013
0, 0.06000, 1, 360, 1, 1, 9999, 9999, 9999, 9999, 9999, 9999, 9999, 9999, 360, 141.546, 0.388453, -348.582, -348.582, 30, 1, 433.013, 0.000848826, 433.013
0, 0.06100, 1, 360, 1, 1, 9999, 9999, 9999, 9999, 9999, 9999, 9999, 9999, 360, 141.546, 0.11223, -348.581, -348.581, 30, 1, 433.013, 0.000848826, 433.013
0, 0.06200, 1, 360, 1, 1, 9999, 9999, 9999, 9999, 9999, 9999, 9999, 9999, 360, 141.546, -0.217844, -348.581, -348.581, 30, 1, 433.013, 0.000848826, 433.013
0, 0.06300, 1, 360, 1, 1, 9999, 9999, 9999, 9999, 9999, 9999, 9999, 9999, 360, 141.546, 0.23746, -348.581, -348.581, 30, 1, 433.013, 0.000848826, 433.013
0, 0.06400, 1, 360, 1, 1, 9999, 9999, 9999, 9999, 9999, 9999, 9999, 9999, 360, 141.546, 0.145912, -348.581, -348.581, 30, 1, 433.013, 0.000848826, 433.013
0, 0.06500, 1, 360, 1, 1, 9999, 9999, 9999, 9999, 9999, 9999, 9999, 9999, 360, 141.546, -0.259219, -348.581, -348.581, 30, 1, 433.013, 0.000848826, 433.013
0, 0.06600, 1, 360, 1, 1, 9999, 9999, 9999, 9999, 9999, 9999, 9999, 9999, 360, 141.546, 0.127329, -348.581, -348.581, 30, 1, 433.013, 0.000848826, 433.013
0, 0.06700, 1, 360, 1, 1, 9999, 9999, 9999, 9999, 9999, 9999, 9999, 9999, 360, 141.546, 0.190104, -348.581, -348.581, 30, 1, 433.013, 0.000848826, 433.013
0, 0.06800, 1, 360, 1, 1, 9999, 9999, 9999, 9999, 9999, 9999, 9999, 9999, 360, 141.546, -0.244344, -348.581, -348.581, 30, 1, 433.013, 0.000848826, 433.013
0, 0.06900, 1, 360, 1, 1, 9999, 9999, 9999, 9999, 9999, 9999, 9999, 9999, 360, 141.546, 0.0357252, -348.581, -348.581, 30, 1, 433.013, 0.000848826, 433.013
0, 0.07000, 1, 360, 1, 1, 9999, 9999, 9999, 9999, 9999, 9999, 9999, 9999, 360, 141.546, 0.218826, -348.581, -348.581, 30, 1, 433.013, 0.000848826, 433.013
0, 0.07100, 1, 360, 1, 1, 9999, 9999, 9999, 9999, 9999, 9999, 9999, 9999, 360, 275.72, -158070, -427.616, -348.581, 30, 1, 433.013, 0.000848826, 433.013
0, 0.07200, 1, 360, 1, 1, 9999, 9999, 9999, 9999, 9999, 9999, 9999, 9999, 360, 272.388, -70771.6, -542.037, -506.651, 30, 1, 433.013, 0.000848826, 433.013
0, 0.07300, 1, 360, 1, 1, 9999, 9999, 9999, 9999, 9999, 9999, 9999, 9999, 360, 271.749, -51760.3, -603.303, -577.423, 30, 1, 433.013, 0.000848826, 433.013
0, 0.07400, 1, 360, 1, 1, 9999, 9999, 9999, 9999, 9999, 9999, 9999, 9999, 360, 271.228, -36157.1, -647.262, -629.183, 30, 1, 433.013, 0.000848826, 433.013
0, 0.07500, 1, 360, 1, 1, 9999, 9999, 9999, 9999, 9999, 9999, 9999, 9999, 360, 270.882, -25366.5, -678.024, -665.34, 30, 1, 433.013, 0.000848826, 433.013
0, 0.07600, 1, 360, 1, 1, 9999, 9999, 9999, 9999, 9999, 9999, 9999, 9999, 360, 270.64, -17786, -699.6, -690.707, 30, 1, 433.013, 0.000848826, 433.013
0, 0.07700, 1, 360, 1, 1, 9999, 9999, 9999, 9999, 9999, 9999, 9999, 9999, 360, 270.471, -12472.9, -714.729, -708.493, 30, 1, 433.013, 0.000848826, 433.013
0, 0.07800, 1, 360, 1, 1, 9999, 9999, 9999, 9999, 9999, 9999, 9999, 9999, 360, 270.356, -8749.56, -725.34, -720.966, 30, 1, 433.013, 0.000848826, 433.013
0, 0.07900, 1, 360, 1, 1, 9999, 9999, 9999, 9999, 9999, 9999, 9999, 9999, 360, 270.279, -6140.68, -732.786, -729.715, 30, 1, 433.013, 0.000848826, 433.013
0, 0.08000, 1, 360, 1, 1, 9999, 9999, 9999, 9999, 9999, 9999, 9999, 9999, 360, 270.228, -4312.86, -738.012, -735.856, 30, 1, 433.013, 0.000848826, 433.013
0, 0.08100, 1, 360, 1, 1, 9999, 9999, 9999, 9999, 9999, 9999, 9999, 9999, 360, 270.195, -3032.34, -741.685, -740.169, 30, 1, 433.013, 0.000848826, 433.013
0, 0.08200, 1, 360, 1, 1, 9999, 9999, 9999, 9999, 9999, 9999, 9999, 9999, 360, 270.176, -2135.25, -744.269, -743.201, 30, 1, 433.013, 0.000848826, 433.013
0, 0.08300, 1, 360, 1, 1, 9999, 9999, 9999, 9999, 9999, 9999, 9999, 9999, 360, 270.166, -1506.75, -746.09, -745.336, 30, 1, 433.013, 0.000848826, 433.013
0, 0.08400, 1, 360, 1, 1, 9999, 9999, 9999, 9999, 9999, 9999, 9999, 9999, 360, 270.163, -1066.39, -747.376, -746.843, 30, 1, 433.013, 0.000848826, 433.013
0, 0.08500, 1, 360, 1, 1, 9999, 9999, 9999, 9999, 9999, 9999, 9999, 9999, 360, 270.164, -757.787, -748.288, -747.909, 30, 1, 433.013, 0.000848826, 433.013
0, 0.08600, 1, 360, 1, 1, 9999, 9999, 9999, 9999, 9999, 9999, 9999, 9999, 360, 270.168, -541.453, -748.938, -748.667, 30, 1, 433.013, 0.000848826, 433.013
0, 0.08700, 1, 360, 1, 1, 9999, 9999, 9999, 9999, 9999, 9999, 9999, 9999, 360, 270.174, -389.733, -749.404, -749.209, 30, 1, 433.013, 0.000848826, 433.013
0, 0.08800, 1, 360, 1, 1, 9999, 9999, 9999, 9999, 9999, 9999, 9999, 9999, 360, 270.181, -283.257, -749.74, -749.598, 30, 1, 433.013, 0.000848826, 433.013
0, 0.08900, 1, 360, 1, 1, 9999, 9999, 9999, 9999, 9999, 9999, 9999, 9999, 360, 270.189, -208.462, -749.986, -749.882, 30, 1, 433.013, 0.000848826, 433.013
0, 0.09000, 1, 360, 1, 1, 9999, 9999, 9999, 9999, 9999, 9999, 9999, 9999, 360, 270.198, -155.85, -750.168, -750.09, 30, 1, 433.013, 0.000848826, 433.013
0, 0.09100, 1, 360, 1, 1, 9999, 9999, 9999, 9999, 9999, 9999, 9999, 9999, 360, 270.207, -118.772, -750.305, -750.246, 30, 1, 433.013, 0.000848826, 433.013
0, 0.09200, 1, 360, 1, 1, 9999, 9999, 9999, 9999, 9999, 9999, 9999, 9999, 360, 270.216, -92.5717, -750.411, -750.365, 30, 1, 433.013, 0.000848826, 433.013
0, 0.09300, 1, 360, 1, 1, 9999, 9999, 9999, 9999, 9999, 9999, 9999, 9999, 360, 270.225, -73.9912, -750.494, -750.457, 30, 1, 433.013, 0.000848826, 433.013
0, 0.09400, 1, 360, 1, 1, 9999, 9999, 9999, 9999, 9999, 9999, 9999, 9999, 360, 270.234, -60.7488, -750.562, -750.531, 30, 1, 433.013, 0.000848826, 433.013
0, 0.09500, 1, 360, 1, 1, 9999, 9999, 9999, 9999, 9999, 9999, 9999, 9999, 360, 270.243, -51.2478, -750.618, -750.592, 30, 1, 433.013, 0.000848826, 433.013
0, 0.09600, 1, 360, 1, 1, 9999, 9999, 9999, 9999, 9999, 9999, 9999, 9999, 360, 270.252, -44.3706, -750.666, -750.643, 30, 1, 433.013, 0.000848826, 433.013
0, 0.09700, 1, 360, 1, 1, 9999, 9999, 9999, 9999, 9999, 9999, 9999, 9999, 360, 270.261, -39.3349, -750.707, -750.688, 30, 1, 433.013, 0.000848826, 433.013
0, 0.09800, 1, 360, 1, 1, 9999, 9999, 9999, 9999, 9999, 9999, 9999, 9999, 360, 270.27, -35.5934, -750.745, -750.727, 30, 1, 433.013, 0.000848826, 433.013
0, 0.09900, 1, 360, 1, 1, 9999, 9999, 9999, 9999, 9999, 9999, 9999, 9999, 360, 270.278, -32.7629, -750.779, -750.763, 30, 1, 433.013, 0.000848826, 433.013
0, 0.10000, 1, 360, 1, 1, 9999, 9999, 9999, 9999, 9999, 9999, 9999, 9999, 360, 270.286, -30.5752, -750.811, -750.795, 30, 1, 433.013, 0.000848826, 433.013
0, 0.10100, 1, 360, 1, 1, 9999, 9999, 9999, 9999, 9999, 9999, 9999, 9999, 360, 270.294, -28.8427, -750.84, -750.826, 30, 1, 433.013, 0.000848826, 433.013
0, 0.10200, 1, 360, 1, 1, 9999, 9999, 9999, 9999, 9999, 9999, 9999, 9999, 360, 270.302, -27.4337, -750.869, -750.855, 30, 1, 433.013, 0.000848826, 433.013
0, 0.10300, 1, 360, 1, 1, 9999, 9999, 9999, 9999, 9999, 9999, 9999, 9999, 360, 270.309, -26.2564, -750.895, -750.882, 30, 1, 433.013, 0.000848826, 433.013
0, 0.10400, 1, 360, 1, 1, 9999, 9999, 9999, 9999, 9999, 9999, 9999, 9999, 360, 270.317, -25.2461, -750.921, -750.909, 30, 1, 433.013, 0.000848826, 433.013
0, 0.10500, 1, 360, 1, 1, 9999, 9999, 9999, 9999, 9999, 9999, 9999, 9999, 360, 270.324, -24.3576, -750.946, -750.934, 30, 1, 433.013, 0.000848826, 433.013
0, 0.10600, 1, 360, 1, 1, 9999, 9999, 9999, 9999, 9999, 9999, 9999, 9999, 360, 270.331, -23.5592, -750.97, -750.958, 30, 1, 433.013, 0.000848826, 433.013
0, 0.10700, 1, 360, 1, 1, 9999, 9999, 9999, 9999, 9999, 9999, 9999, 9999, 360, 270.337, -22.8285, -750.993, -750.982, 30, 1, 433.013, 0.000848826, 433.013
0, 0.10800, 1, 360, 1, 1, 9999, 9999, 9999, 9999, 9999, 9999, 9999, 9999, 360, 270.344, -22.1498, -751.016, -751.005, 30, 1, 433.013, 0.000848826, 433.013
0, 0.10900, 1, 360, 1, 1, 9999, 9999, 9999, 9999, 9999, 9999, 9999, 9999, 360, 270.351, -21.5118, -751.037, -751.027, 30, 1, 433.013, 0.000848826, 433.013
0, 0.11000, 1, 360, 1, 1, 9999, 9999, 9999, 9999, 9999, 9999, 9999, 9999, 360, 270.357, -20.9068, -751.059, -751.048, 30, 1, 433.013, 0.000848826, 433.013
0, 0.11100, 1, 360, 1, 1, 9999, 9999, 9999, 9999, 9999, 9999, 9999, 9999, 360, 270.363, -20.3291, -751.079, -751.069, 30, 1, 433.013, 0.000848826, 433.013
0, 0.11200, 1, 360, 1, 1, 9999, 9999, 9999, 9999, 9999, 9999, 9999, 9999, 360, 270.369, -19.7747, -751.099, -751.089, 30, 1, 433.013, 0.000848826, 433.013
0, 0.11300, 1, 360, 1, 1, 9999, 9999, 9999, 9999, 9999, 9999, 9999, 9999, 360, 270.375, -19.2405, -751.119, -751.109, 30, 1, 433.013, 0.000848826, 433.013
0, 0.11400, 1, 360, 1, 1, 9999, 9999, 9999, 9999, 9999, 9999, 9999, 9999, 360, 270.38, -18.7244, -751.138, -751.128, 30, 1, 433.013, 0.000848826, 433.013
0, 0.11500, 1, 360, 1, 1, 9999, 9999, 9999, 9999, 9999, 9999, 9999, 9999, 360, 270.386, -18.2248, -751.156, -751.147, 30, 1, 433.013, 0.000848826, 433.013
0, 0.11600, 1, 360, 1, 1, 9999, 9999, 9999, 9999, 9999, 9999, 9999, 9999, 360, 270.391, -17.7404, -751.174, -751.165, 30, 1, 433.013, 0.000848826, 433.013
0, 0.11700, 1, 360, 1, 1, 9999, 9999, 9999, 9999, 9999, 9999, 9999, 9999, 360, 270.396, -17.2703, -751.192, -751.183, 30, 1, 433.013, 0.000848826, 433.013
0, 0.11800, 1, 360, 1, 1, 9999, 9999, 9999, 9999, 9999, 9999, 9999, 9999, 360, 270.401, -16.8137, -751.209, -751.2, 30, 1, 433.013, 0.000848826, 433.013
0, 0.11900, 1, 360, 1, 1, 9999, 9999, 9999, 9999, 9999, 9999, 9999, 9999, 360, 270.406, -16.3699, -751.225, -751.217, 30, 1, 433.013, 0.000848826, 433.013
0, 0.12000, 1, 360, 1, 1, 9999, 9999, 9999, 9999, 9999, 9999, 9999, 9999, 360, 270.411, -15.9385, -751.242, -751.234, 30, 1, 433.013, 0.000848826, 433.013
